 (000.000000)  can0  TX - -  108   [6]  06 13 05 07 BE 7E
 (000.000124)  can0  RX - -  109   [8]  0B 14 57 8A FD DF 94 14
 (000.000354)  can0  RX - -  109   [8]  8A E6 7E 05 14 D8 A5 7E
 (000.041617)  can0  RX - -  109   [8]  0F 14 5E 0A 8A FF D4 AE
 (000.041842)  can0  RX - -  109   [7]  56 81 EE 60 BB 13 7E
 (000.051906)  can0  RX - -  109   [8]  0F 14 5E 0B 8A FF DB D8
 (000.052005)  can0  RX - -  109   [7]  16 81 F3 47 83 EF 7E
 (000.342127)  can0  RX - -  109   [8]  0F 14 5E 0A 8B 81 B0 8B
 (000.342236)  can0  RX - -  109   [7]  56 81 EE 5A E2 C0 7E
 (000.352365)  can0  RX - -  109   [8]  0F 14 5E 0B 8B 81 B7 B5
 (000.352488)  can0  RX - -  109   [7]  16 81 F3 49 17 C1 7E
 (000.641362)  can0  RX - -  109   [8]  0F 14 5E 0A 8B 83 8B E8
 (000.641487)  can0  RX - -  109   [7]  56 81 EE 58 A0 E3 7E
 (000.651613)  can0  RX - -  109   [8]  0F 14 5E 0B 8B 83 93 92
 (000.651734)  can0  RX - -  109   [7]  16 81 F3 47 0C 85 7E
 (000.941860)  can0  RX - -  109   [8]  0F 14 5E 0A 8B 84 E7 C5
 (000.941977)  can0  RX - -  109   [7]  56 81 EE 58 CD 5B 7E
 (000.952124)  can0  RX - -  109   [8]  0F 14 5E 0B 8B 84 EE EF
 (000.952269)  can0  RX - -  109   [7]  16 81 F3 47 52 C4 7E
 (000.984868)  can0  TX - -  108   [6]  06 14 05 4A B6 7E
 (000.985136)  can0  RX - -  109   [8]  03 B8 7E 05 15 C9 2C 7E
 (000.985005)  can0  RX - -  109   [8]  0B 15 57 8B 83 B0 E6 12
 (001.241481)  can0  RX - -  109   [8]  0F 15 5E 0A 8B 86 C3 A2
 (001.241601)  can0  RX - -  109   [7]  56 81 EE 59 BA 5B 7E
 (001.251711)  can0  RX - -  109   [8]  0F 15 5E 0B 8B 86 CA CC
 (001.251845)  can0  RX - -  109   [7]  16 81 F3 4B 12 13 7E
 (001.542003)  can0  RX - -  109   [8]  0F 15 5E 0A 8B 88 9E FF
 (001.542134)  can0  RX - -  109   [7]  56 81 EE 5D 06 F6 7E
 (001.552252)  can0  RX - -  109   [8]  0F 15 5E 0B 8B 88 A6 A9
 (001.552375)  can0  RX - -  109   [7]  16 81 F3 4A B4 19 7E
 (001.841236)  can0  RX - -  109   [8]  0F 15 5E 0A 8B 89 FA DC
 (001.841347)  can0  RX - -  109   [7]  56 81 EE 5D 73 63 7E
 (001.851475)  can0  RX - -  109   [8]  0F 15 5E 0B 8B 8A 82 86
 (001.851612)  can0  RX - -  109   [7]  16 81 F3 47 C7 E6 7E
 (001.969249)  can0  TX - -  108   [6]  06 15 05 53 6E 7E
 (001.970618)  can0  RX - -  109   [8]  0B 16 57 8B 89 82 95 01
 (001.970756)  can0  RX - -  109   [8]  BC D8 7E 05 16 FB B7 7E
 (002.142120)  can0  RX - -  109   [8]  0F 16 5E 0A 8B 8B D6 B9
 (002.142245)  can0  RX - -  109   [7]  56 81 EE 5E BB 83 7E
 (002.151122)  can0  RX - -  109   [8]  0F 16 5E 0B 8B 8B DD E3
 (002.151304)  can0  RX - -  109   [7]  16 81 F3 4A 87 6A 7E
 (002.441358)  can0  RX - -  109   [8]  0F 16 5E 0A 8B 8D B2 96
 (002.441516)  can0  RX - -  109   [7]  56 81 EE 5D 4C A5 7E
 (002.451605)  can0  RX - -  109   [8]  0F 16 5E 0B 8B 8D B9 C0
 (002.451736)  can0  RX - -  109   [7]  16 81 F3 49 07 7C 7E
 (002.741868)  can0  RX - -  109   [8]  0F 16 5E 0A 8B 8F 8D F3
 (002.742007)  can0  RX - -  109   [7]  56 81 EE 5B 63 96 7E
 (002.752124)  can0  RX - -  109   [8]  0F 16 5E 0B 8B 8F 95 9D
 (002.752235)  can0  RX - -  109   [7]  16 81 F3 4B AE 57 7E
 (002.954857)  can0  TX - -  108   [6]  06 16 05 79 06 7E
 (002.955111)  can0  RX - -  109   [8]  59 7C 7E 05 17 EA 3E 7E
 (002.954995)  can0  RX - -  109   [8]  0B 17 57 8B 8E D3 9A 35
 (003.041484)  can0  RX - -  109   [8]  0F 17 5E 0A 8B 90 E9 D0
 (003.041604)  can0  RX - -  109   [7]  56 81 EE 5C 04 C5 7E
 (003.051777)  can0  RX - -  109   [8]  0F 17 5E 0B 8B 90 F0 FA
 (003.051865)  can0  RX - -  109   [7]  16 81 F3 48 67 39 7E
 (003.341998)  can0  RX - -  109   [8]  0F 17 5E 0A 8B 92 C5 AD
 (003.342115)  can0  RX - -  109   [7]  56 81 EE 60 15 82 7E
 (003.352241)  can0  RX - -  109   [8]  0F 17 5E 0B 8B 92 CC D7
 (003.352383)  can0  RX - -  109   [7]  16 81 F3 48 BA 43 7E
 (003.641232)  can0  RX - -  109   [8]  0F 17 5E 0A 8B 94 A1 8A
 (003.641414)  can0  RX - -  109   [7]  56 81 EE 5C 71 F0 7E
 (003.651481)  can0  RX - -  109   [8]  0F 17 5E 0B 8B 94 A8 B4
 (003.651602)  can0  RX - -  109   [7]  16 81 F3 48 C9 EC 7E
 (003.939224)  can0  TX - -  108   [6]  06 17 05 60 DE 7E
 (003.939373)  can0  RX - -  109   [8]  0B 18 57 8B 94 A4 A9 31
 (003.939487)  can0  RX - -  109   [8]  89 B4 7E 05 18 12 C9 7E
 (003.942096)  can0  RX - -  109   [8]  0F 18 5E 0A 8B 95 FC E7
 (003.942225)  can0  RX - -  109   [7]  56 81 EE 5D 4B 99 7E
 (003.951096)  can0  RX - -  109   [8]  0F 18 5E 0B 8B 96 84 91
 (003.951235)  can0  RX - -  109   [7]  16 81 F3 4A 33 58 7E
 (004.061393)  can0  RX - -  109   [8]  0E 18 55 81 54 81 F5 4B
 (004.061476)  can0  RX - -  109   [6]  83 EF 2A 57 DE 7E
 (004.241615)  can0  RX - -  109   [8]  0F 18 5E 0A 8B 97 D8 C4
 (004.241740)  can0  RX - -  109   [7]  56 81 EE 60 7E D5 7E
 (004.251851)  can0  RX - -  109   [8]  0F 18 5E 0B 8B 97 DF EE
 (004.252014)  can0  RX - -  109   [7]  16 81 F3 47 65 23 7E
 (004.542115)  can0  RX - -  109   [8]  0F 18 5E 0A 8B 99 B4 A1
 (004.542280)  can0  RX - -  109   [7]  56 81 EE 60 C9 56 7E
 (004.551114)  can0  RX - -  109   [8]  0F 18 5E 0B 8B 99 BB CB
 (004.551249)  can0  RX - -  109   [7]  16 81 F3 48 CA 2D 7E
 (004.841364)  can0  RX - -  109   [8]  0F 18 5E 0A 8B 9B 8F FE
 (004.841483)  can0  RX - -  109   [7]  56 81 EE 5E D3 7B 7E
 (004.851593)  can0  RX - -  109   [8]  0F 18 5E 0B 8B 9B 97 A8
 (004.851723)  can0  RX - -  109   [7]  16 81 F3 4A D6 6F 7E
 (004.923258)  can0  TX - -  108   [6]  06 18 05 E3 16 7E
 (004.924608)  can0  RX - -  109   [8]  0B 19 57 8B 99 F5 E2 37
 (004.924725)  can0  RX - -  109   [8]  83 29 7E 05 19 03 40 7E
 (005.141121)  can0  RX - -  109   [8]  0F 19 5E 0A 8B 9C EB DB
 (005.141383)  can0  RX - -  109   [7]  56 81 EE 56 1C 62 7E
 (005.151358)  can0  RX - -  109   [8]  0F 19 5E 0B 8B 9C F3 85
 (005.151546)  can0  RX - -  109   [7]  16 81 F3 46 05 72 7E
 (005.441600)  can0  RX - -  109   [8]  0F 19 5E 0A 8B 9E C7 B8
 (005.441731)  can0  RX - -  109   [7]  56 81 EE 5E AF 7A 7E
 (005.451850)  can0  RX - -  109   [8]  0F 19 5E 0B 8B 9E CE E2
 (005.451998)  can0  RX - -  109   [7]  16 81 F3 47 40 20 7E
 (005.742099)  can0  RX - -  109   [8]  0F 19 5E 0A 8B A0 A3 95
 (005.742257)  can0  RX - -  109   [7]  56 81 EE 5D 46 72 7E
 (005.751098)  can0  RX - -  109   [8]  0F 19 5E 0B 8B A0 AA BF
 (005.751224)  can0  RX - -  109   [7]  16 81 F3 48 76 B7 7E
 (005.908864)  can0  TX - -  108   [6]  06 19 05 FA CE 7E
 (005.908990)  can0  RX - -  109   [8]  0B 1A 57 8B 9F C7 80 73
 (005.909235)  can0  RX - -  109   [8]  01 0E 7E 05 1A 31 DB 7E
 (006.041852)  can0  RX - -  109   [8]  0F 1A 5E 0A 8B A1 FE F2
 (006.041985)  can0  RX - -  109   [7]  56 81 EE 5A B7 7A 7E
 (006.052103)  can0  RX - -  109   [8]  0F 1A 5E 0B 8B A2 86 9C
 (006.052235)  can0  RX - -  109   [7]  16 81 F3 47 8E 81 7E
 (006.341116)  can0  RX - -  109   [8]  0F 1A 5E 0A 8B A3 DA CF
 (006.341408)  can0  RX - -  109   [7]  56 81 EE 58 9E BA 7E
 (006.351360)  can0  RX - -  109   [8]  0F 1A 5E 0B 8B A3 E1 F9
 (006.351488)  can0  RX - -  109   [7]  16 81 F3 46 1C 5A 7E
 (006.641598)  can0  RX - -  109   [8]  0F 1A 5E 0A 8B A5 B6 AC
 (006.641730)  can0  RX - -  109   [7]  56 81 EE 5E A9 7B 7E
 (006.651846)  can0  RX - -  109   [8]  0F 1A 5E 0B 8B A5 BD D6
 (006.651983)  can0  RX - -  109   [7]  16 81 F3 46 3F 6F 7E
 (006.893368)  can0  TX - -  108   [6]  06 1A 05 D0 A6 7E
 (006.893469)  can0  RX - -  109   [8]  0B 1B 57 8B A5 98 D4 40
 (006.893609)  can0  RX - -  109   [8]  70 2C 7E 05 1B 20 52 7E
 (006.941224)  can0  RX - -  109   [8]  0F 1B 5E 0A 8B A7 92 89
 (006.941352)  can0  RX - -  109   [7]  56 81 EE 60 C0 A5 7E
 (006.951465)  can0  RX - -  109   [8]  0F 1B 5E 0B 8B A7 99 B3
 (006.951602)  can0  RX - -  109   [7]  16 81 F3 4B 94 8B 7E
 (007.241729)  can0  RX - -  109   [8]  0F 1B 5E 0A 8B A8 ED E6
 (007.241837)  can0  RX - -  109   [7]  56 81 EE 59 46 D4 7E
 (007.251965)  can0  RX - -  109   [8]  0F 1B 5E 0B 8B A8 F5 90
 (007.252093)  can0  RX - -  109   [7]  16 81 F3 47 8C 0B 7E
 (007.540977)  can0  RX - -  109   [8]  0F 1B 5E 0A 8B AA C9 C3
 (007.541098)  can0  RX - -  109   [7]  56 81 EE 5F C7 50 7E
 (007.551228)  can0  RX - -  109   [8]  0F 1B 5E 0B 8B AA D0 ED
 (007.551458)  can0  RX - -  109   [7]  16 81 F3 45 60 C2 7E
 (007.841483)  can0  RX - -  109   [8]  0F 1B 5E 0A 8B AC A5 A0
 (007.841745)  can0  RX - -  109   [7]  56 81 EE 5D B6 B5 7E
 (007.851723)  can0  RX - -  109   [8]  0F 1B 5E 0B 8B AC AC CA
 (007.851879)  can0  RX - -  109   [7]  16 81 F3 49 56 DB 7E
 (007.878245)  can0  TX - -  108   [6]  06 1B 05 C9 7E 7E
 (007.878343)  can0  RX - -  109   [8]  0B 1C 57 8B AA E9 D1 3B
 (007.878483)  can0  RX - -  109   [8]  6C 25 7E 05 1C 54 ED 7E
 (008.141106)  can0  RX - -  109   [8]  0F 1C 5E 0A 8B AE 80 FD
 (008.141226)  can0  RX - -  109   [7]  56 81 EE 5E 8B 82 7E
 (008.151339)  can0  RX - -  109   [8]  0F 1C 5E 0B 8B AE 88 A7
 (008.151458)  can0  RX - -  109   [7]  16 81 F3 4A BB 16 7E
 (008.441591)  can0  RX - -  109   [8]  0F 1C 5E 0A 8B AF DC DA
 (008.441721)  can0  RX - -  109   [7]  56 81 EE 5B 62 22 7E
 (008.451839)  can0  RX - -  109   [8]  0F 1C 5E 0B 8B AF E4 84
 (008.451966)  can0  RX - -  109   [7]  16 81 F3 4A EF DB 7E
 (008.742096)  can0  RX - -  109   [8]  0F 1C 5E 0A 8B B1 B8 B7
 (008.742221)  can0  RX - -  109   [7]  56 81 EE 57 D1 7C 7E
 (008.751097)  can0  RX - -  109   [8]  0F 1C 5E 0B 8B B1 BF E1
 (008.751232)  can0  RX - -  109   [7]  16 81 F3 4A 36 90 7E
 (008.862598)  can0  TX - -  108   [6]  06 1C 05 84 76 7E
 (008.862709)  can0  RX - -  109   [8]  0B 1D 57 8B B0 BA EA 4D
 (008.862835)  can0  RX - -  109   [8]  C4 C3 7E 05 1D 45 64 7E
 (009.041720)  can0  RX - -  109   [8]  0F 1D 5E 0A 8B B3 94 94
 (009.041842)  can0  RX - -  109   [7]  56 81 EE 59 93 E1 7E
 (009.051976)  can0  RX - -  109   [8]  0F 1D 5E 0B 8B B3 9B BE
 (009.052091)  can0  RX - -  109   [7]  16 81 F3 46 14 84 7E
 (009.061000)  can0  RX - -  109   [8]  0E 1D 55 81 51 81 F5 74
 (009.061135)  can0  RX - -  109   [6]  83 EB 0E C5 8B 7E
 (009.341218)  can0  RX - -  109   [8]  0F 1D 5E 0A 8B B4 EF F1
 (009.341346)  can0  RX - -  109   [7]  56 81 EE 5E 4F 85 7E
 (009.351464)  can0  RX - -  109   [8]  0F 1D 5E 0B 8B B4 F7 9B
 (009.351593)  can0  RX - -  109   [7]  16 81 F3 48 CA 62 7E
 (009.641717)  can0  RX - -  109   [8]  0F 1D 5E 0A 8B B6 CB CE
 (009.641836)  can0  RX - -  109   [7]  56 81 EE 5B 04 72 7E
 (009.651959)  can0  RX - -  109   [8]  0F 1D 5E 0B 8B B6 D2 F8
 (009.652090)  can0  RX - -  109   [7]  16 81 F3 45 0B A4 7E
 (009.847222)  can0  TX - -  108   [6]  06 1D 05 9D AE 7E
 (009.847356)  can0  RX - -  109   [8]  0B 1E 57 8B B6 8C 8B 29
 (009.847551)  can0  RX - -  109   [8]  2E EF 7E 05 1E 77 FF 7E
 (009.941324)  can0  RX - -  109   [8]  0F 1E 5E 0A 8B B8 A7 AB
 (009.941459)  can0  RX - -  109   [7]  56 81 EE 5F 0B 66 7E
 (009.951584)  can0  RX - -  109   [8]  0F 1E 5E 0B 8B B8 AE D5
 (009.951704)  can0  RX - -  109   [7]  16 81 F3 46 A9 BD 7E
 (010.241844)  can0  RX - -  109   [8]  0F 1E 5E 0A 8B BA 83 88
 (010.241980)  can0  RX - -  109   [7]  56 81 EE 60 1D 38 7E
 (010.252095)  can0  RX - -  109   [8]  0F 1E 5E 0B 8B BA 8A B2
 (010.252206)  can0  RX - -  109   [7]  16 81 F3 49 62 52 7E
 (010.541094)  can0  RX - -  109   [8]  0F 1E 5E 0A 8B BB DE E5
 (010.541222)  can0  RX - -  109   [7]  56 81 EE 5D C0 F2 7E
 (010.551343)  can0  RX - -  109   [8]  0F 1E 5E 0B 8B BB E6 8F
 (010.551462)  can0  RX - -  109   [7]  16 81 F3 47 0A 19 7E
 (010.831595)  can0  TX - -  108   [6]  06 1E 05 B7 C6 7E
 (010.831723)  can0  RX - -  109   [8]  0B 1F 57 8B BB DD 82 5D
 (010.831842)  can0  RX - -  109   [8]  01 31 7E 05 1F 66 76 7E
 (010.841989)  can0  RX - -  109   [8]  0F 1F 5E 0A 8B BD BA C2
 (010.842089)  can0  RX - -  109   [7]  56 81 EE 5E 38 65 7E
 (010.850970)  can0  RX - -  109   [8]  0F 1F 5E 0B 8B BD C1 EC
 (010.851102)  can0  RX - -  109   [7]  16 81 F3 47 22 8B 7E
 (011.141212)  can0  RX - -  109   [8]  0F 1F 5E 0A 8B BF 96 9F
 (011.141432)  can0  RX - -  109   [7]  56 81 EE 5D 80 C7 7E
 (011.151463)  can0  RX - -  109   [8]  0F 1F 5E 0B 8B BF 9D C9
 (011.151579)  can0  RX - -  109   [7]  16 81 F3 45 01 72 7E
 (011.441714)  can0  RX - -  109   [8]  0F 1F 5E 0A 8B C0 F1 FC
 (011.441830)  can0  RX - -  109   [7]  56 81 EE 5E 9D FB 7E
 (011.451955)  can0  RX - -  109   [8]  0F 1F 5E 0B 8B C0 F9 A6
 (011.452072)  can0  RX - -  109   [7]  16 81 F3 4C C8 59 7E
 (011.740958)  can0  RX - -  109   [8]  0F 1F 5E 0A 8B C2 CD D9
 (011.741070)  can0  RX - -  109   [7]  56 81 EE 60 C2 5C 7E
 (011.751205)  can0  RX - -  109   [8]  0F 1F 5E 0B 8B C2 D5 83
 (011.751332)  can0  RX - -  109   [7]  16 81 F3 48 4B 97 7E
 (011.816470)  can0  TX - -  108   [6]  06 1F 05 AE 1E 7E
 (011.816615)  can0  RX - -  109   [8]  0B 10 57 8B C1 AE 98 24
 (011.816708)  can0  RX - -  109   [8]  77 35 7E 05 10 9E 81 7E
 (012.041837)  can0  RX - -  109   [8]  0F 10 5E 0A 8B C4 A9 B6
 (012.041947)  can0  RX - -  109   [7]  56 81 EE 60 DA 8F 7E
 (012.050828)  can0  RX - -  109   [8]  0F 10 5E 0B 8B C4 B0 E0
 (012.051056)  can0  RX - -  109   [7]  16 81 F3 49 31 D6 7E
 (012.341123)  can0  RX - -  109   [8]  0F 10 5E 0A 8B C6 85 93
 (012.341197)  can0  RX - -  109   [7]  56 81 EE 59 B3 27 7E
 (012.351359)  can0  RX - -  109   [8]  0F 10 5E 0B 8B C6 8C BD
 (012.351483)  can0  RX - -  109   [7]  16 81 F3 49 F9 5F 7E
 (012.641601)  can0  RX - -  109   [8]  0F 10 5E 0A 8B C7 E0 F0
 (012.641734)  can0  RX - -  109   [7]  56 81 EE 57 EA C5 7E
 (012.651837)  can0  RX - -  109   [8]  0F 10 5E 0B 8B C7 E8 9A
 (012.651953)  can0  RX - -  109   [7]  16 81 F3 45 6B B6 7E
 (012.800827)  can0  TX - -  108   [6]  06 10 05 2D D6 7E
 (012.800952)  can0  RX - -  109   [8]  0B 11 57 8B C6 FF C5 5A
 (012.801081)  can0  RX - -  109   [8]  9F 88 7E 05 11 8F 08 7E
 (012.941204)  can0  RX - -  109   [8]  0F 11 5E 0A 8B C9 BC CD
 (012.941319)  can0  RX - -  109   [7]  56 81 EE 5E 7D 84 7E
 (012.951446)  can0  RX - -  109   [8]  0F 11 5E 0B 8B C9 C3 F7
 (012.951576)  can0  RX - -  109   [7]  16 81 F3 48 16 61 7E
 (013.241714)  can0  RX - -  109   [8]  0F 11 5E 0A 8B CB 98 AA
 (013.241836)  can0  RX - -  109   [7]  56 81 EE 59 3A 23 7E
 (013.251949)  can0  RX - -  109   [8]  0F 11 5E 0B 8B CB 9F D4
 (013.252116)  can0  RX - -  109   [7]  16 81 F3 45 F6 F7 7E
 (013.540949)  can0  RX - -  109   [8]  0F 11 5E 0A 8B CC F4 87
 (013.541097)  can0  RX - -  109   [7]  56 81 EE 57 BE E5 7E
 (013.551211)  can0  RX - -  109   [8]  0F 11 5E 0B 8B CC FB B1
 (013.551331)  can0  RX - -  109   [7]  16 81 F3 4A D9 E2 7E
 (013.790232)  can0  TX - -  108   [6]  06 11 05 34 0E 7E
 (013.790331)  can0  RX - -  109   [8]  0B 12 57 8B CC D3 D3 03
 (013.790469)  can0  RX - -  109   [8]  43 D5 7E 05 12 BD 93 7E
 (013.841845)  can0  RX - -  109   [8]  0F 12 5E 0A 8B CE CF E4
 (013.842045)  can0  RX - -  109   [7]  56 81 EE 5D 8E 3D 7E
 (013.850862)  can0  RX - -  109   [8]  0F 12 5E 0B 8B CE D7 8E
 (013.850955)  can0  RX - -  109   [7]  16 81 F3 4A 1A 53 7E
 (014.061083)  can0  RX - -  109   [8]  0E 12 55 81 49 81 E9 7C
 (014.061220)  can0  RX - -  109   [6]  83 D6 30 FB FD 7E
 (014.141326)  can0  RX - -  109   [8]  0F 12 5E 0A 8B D0 AB C1
 (014.141440)  can0  RX - -  109   [7]  56 81 EE 60 86 6B 7E
 (014.151567)  can0  RX - -  109   [8]  0F 12 5E 0B 8B D0 B2 EB
 (014.151697)  can0  RX - -  109   [7]  16 81 F3 48 1E 78 7E
 (014.441823)  can0  RX - -  109   [8]  0F 12 5E 0A 8B D2 87 9E
 (014.441965)  can0  RX - -  109   [7]  56 81 EE 5B 95 8A 7E
 (014.450822)  can0  RX - -  109   [8]  0F 12 5E 0B 8B D2 8E C8
 (014.450944)  can0  RX - -  109   [7]  16 81 F3 4A 81 A8 7E
 (014.741076)  can0  RX - -  109   [8]  0F 12 5E 0A 8B D3 E2 FB
 (014.741204)  can0  RX - -  109   [7]  56 81 EE 60 91 DE 7E
 (014.751327)  can0  RX - -  109   [8]  0F 12 5E 0B 8B D3 EA A5
 (014.751437)  can0  RX - -  109   [7]  16 81 F3 46 9E CB 7E
 (014.774075)  can0  TX - -  108   [6]  06 12 05 1E 66 7E
 (014.774205)  can0  RX - -  109   [8]  0B 13 57 8B D2 A4 CA 1E
 (014.774327)  can0  RX - -  109   [8]  34 D3 7E 05 13 AC 1A 7E
 (015.041952)  can0  RX - -  109   [8]  0F 13 5E 0A 8B D5 BE D8
 (015.042184)  can0  RX - -  109   [7]  56 81 EE 58 2D 81 7E
 (015.050953)  can0  RX - -  109   [8]  0F 13 5E 0B 8B D5 C6 82
 (015.051089)  can0  RX - -  109   [7]  16 81 F3 45 45 D5 7E
 (015.341206)  can0  RX - -  109   [8]  0F 13 5E 0A 8B D7 9A B5
 (015.341334)  can0  RX - -  109   [7]  56 81 EE 5E 37 07 7E
 (015.351462)  can0  RX - -  109   [8]  0F 13 5E 0B 8B D7 A1 DF
 (015.351567)  can0  RX - -  109   [7]  16 81 F3 4B 09 66 7E
 (015.641709)  can0  RX - -  109   [8]  0F 13 5E 0A 8B D8 F6 92
 (015.641973)  can0  RX - -  109   [7]  56 81 EE 60 10 06 7E
 (015.650698)  can0  RX - -  109   [8]  0F 13 5E 0B 8B D8 FD BC
 (015.650856)  can0  RX - -  109   [7]  16 81 F3 48 EF E3 7E
 (015.758461)  can0  TX - -  108   [6]  06 13 05 07 BE 7E
 (015.758618)  can0  RX - -  109   [8]  0B 14 57 8B D7 F5 DD 56
 (015.758700)  can0  RX - -  109   [8]  52 76 7E 05 14 D8 A5 7E
 (015.941326)  can0  RX - -  109   [8]  0F 14 5E 0A 8B DA D1 EF
 (015.941439)  can0  RX - -  109   [7]  56 81 EE 54 00 CA 7E
 (015.951558)  can0  RX - -  109   [8]  0F 14 5E 0B 8B DA D9 99
 (015.951686)  can0  RX - -  109   [7]  16 81 F3 48 AB B7 7E
 (016.241834)  can0  RX - -  109   [8]  0F 14 5E 0A 8B DC AD CC
 (016.242106)  can0  RX - -  109   [7]  56 81 EE 5E 7E F5 7E
 (016.250820)  can0  RX - -  109   [8]  0F 14 5E 0B 8B DC B4 F6
 (016.250951)  can0  RX - -  109   [7]  16 81 F3 46 63 25 7E
 (016.541065)  can0  RX - -  109   [8]  0F 14 5E 0A 8B DE 89 A9
 (016.541187)  can0  RX - -  109   [7]  56 81 EE 5C 78 77 7E
 (016.551313)  can0  RX - -  109   [8]  0F 14 5E 0B 8B DE 90 D3
 (016.551451)  can0  RX - -  109   [7]  16 81 F3 48 6E E9 7E
 (016.744062)  can0  TX - -  108   [6]  06 14 05 4A B6 7E
 (016.744183)  can0  RX - -  109   [8]  0B 15 57 8B DD C7 92 5B
 (016.744315)  can0  RX - -  109   [8]  3C 50 7E 05 15 C9 2C 7E
 (016.840706)  can0  RX - -  109   [8]  0F 15 5E 0A 8B DF E5 86
 (016.840935)  can0  RX - -  109   [7]  56 81 EE 5E 2D 09 7E
 (016.850955)  can0  RX - -  109   [8]  0F 15 5E 0B 8B DF EC B0
 (016.851068)  can0  RX - -  109   [7]  16 81 F3 48 EC 27 7E
 (017.141199)  can0  RX - -  109   [8]  0F 15 5E 0A 8B E1 C0 E3
 (017.141313)  can0  RX - -  109   [7]  56 81 EE 5F 7A EB 7E
 (017.151433)  can0  RX - -  109   [8]  0F 15 5E 0B 8B E1 C8 8D
 (017.151559)  can0  RX - -  109   [7]  16 81 F3 45 5A C0 7E
 (017.441692)  can0  RX - -  109   [8]  0F 15 5E 0A 8B E3 9C C0
 (017.441801)  can0  RX - -  109   [7]  56 81 EE 5D 62 8A 7E
 (017.450685)  can0  RX - -  109   [8]  0F 15 5E 0B 8B E3 A3 EA
 (017.450816)  can0  RX - -  109   [7]  16 81 F3 46 64 1B 7E
 (017.728437)  can0  TX - -  108   [6]  06 15 05 53 6E 7E
 (017.728696)  can0  RX - -  109   [8]  B0 0A 7E 05 16 FB B7 7E
 (017.728568)  can0  RX - -  109   [8]  0B 16 57 8B E3 98 AC 59
 (017.741301)  can0  RX - -  109   [8]  0F 16 5E 0A 8B E4 F8 9D
 (017.741429)  can0  RX - -  109   [7]  56 81 EE 61 3E C5 7E
 (017.751548)  can0  RX - -  109   [8]  0F 16 5E 0B 8B E4 FF C7
 (017.751670)  can0  RX - -  109   [7]  16 81 F3 47 21 49 7E
 (018.041810)  can0  RX - -  109   [8]  0F 16 5E 0A 8B E6 D3 FA
 (018.041992)  can0  RX - -  109   [7]  56 81 EE 58 9C 16 7E
 (018.050809)  can0  RX - -  109   [8]  0F 16 5E 0B 8B E6 DB A4
 (018.050933)  can0  RX - -  109   [7]  16 81 F3 49 D6 3F 7E
 (018.341090)  can0  RX - -  109   [8]  0F 16 5E 0A 8B E8 AF D7
 (018.341201)  can0  RX - -  109   [7]  56 81 EE 5E 97 11 7E
 (018.351319)  can0  RX - -  109   [8]  0F 16 5E 0B 8B E8 B7 81
 (018.351435)  can0  RX - -  109   [7]  16 81 F3 4A 92 05 7E
 (018.641571)  can0  RX - -  109   [8]  0F 16 5E 0A 8B EA 8B B4
 (018.641870)  can0  RX - -  109   [7]  56 81 EE 61 40 6D 7E
 (018.651815)  can0  RX - -  109   [8]  0F 16 5E 0B 8B EA 92 DE
 (018.651958)  can0  RX - -  109   [7]  16 81 F3 46 E1 AB 7E
 (018.713314)  can0  TX - -  108   [6]  06 16 05 79 06 7E
 (018.713436)  can0  RX - -  109   [8]  0B 17 57 8B E8 E9 D4 72
 (018.713557)  can0  RX - -  109   [8]  94 1B 7E 05 17 EA 3E 7E
 (018.941186)  can0  RX - -  109   [8]  0F 17 5E 0A 8B EB E7 91
 (018.941300)  can0  RX - -  109   [7]  56 81 EE 5C 90 CF 7E
 (018.951430)  can0  RX - -  109   [8]  0F 17 5E 0B 8B EB EE BB
 (018.951665)  can0  RX - -  109   [7]  16 81 F3 48 B1 83 7E
 (019.160435)  can0  RX - -  109   [8]  0E 17 55 81 52 81 F6 30
 (019.160572)  can0  RX - -  109   [6]  83 EC 78 7E AC 7E
 (019.240691)  can0  RX - -  109   [8]  0F 17 5E 0A 8B ED C2 EE
 (019.240825)  can0  RX - -  109   [7]  56 81 EE 5E 05 F8 7E
 (019.250924)  can0  RX - -  109   [8]  0F 17 5E 0B 8B ED CA 98
 (019.251057)  can0  RX - -  109   [7]  16 81 F3 47 F9 28 7E
 (019.541181)  can0  RX - -  109   [8]  0F 17 5E 0A 8B EF 9E CB
 (019.541308)  can0  RX - -  109   [7]  56 81 EE 60 DD EE 7E
 (019.551428)  can0  RX - -  109   [8]  0F 17 5E 0B 8B EF A5 F5
 (019.551546)  can0  RX - -  109   [7]  16 81 F3 48 51 9B 7E
 (019.697928)  can0  TX - -  108   [6]  06 17 05 60 DE 7E
 (019.698061)  can0  RX - -  109   [8]  0B 18 57 8B EE BA DC 5E
 (019.698184)  can0  RX - -  109   [8]  8F 5C 7E 05 18 12 C9 7E
 (019.840829)  can0  RX - -  109   [8]  0F 18 5E 0A 8B F0 FA A8
 (019.840930)  can0  RX - -  109   [7]  56 81 EE 5E 9E 00 7E
 (019.851062)  can0  RX - -  109   [8]  0F 18 5E 0B 8B F1 81 D2
 (019.851279)  can0  RX - -  109   [7]  16 81 F3 48 BB BE 7E
 (020.141312)  can0  RX - -  109   [8]  0F 18 5E 0A 8B F2 D6 85
 (020.141497)  can0  RX - -  109   [7]  56 81 EE 5B 56 67 7E
 (020.151551)  can0  RX - -  109   [8]  0F 18 5E 0B 8B F2 DD AF
 (020.151678)  can0  RX - -  109   [7]  16 81 F3 49 1A 4B 7E
 (020.440548)  can0  RX - -  109   [8]  0F 18 5E 0A 8B F4 B1 E2
 (020.440700)  can0  RX - -  109   [7]  56 81 EE 5F 42 81 7E
 (020.450810)  can0  RX - -  109   [8]  0F 18 5E 0B 8B F4 B9 8C
 (020.450940)  can0  RX - -  109   [7]  16 81 F3 47 41 B8 7E
 (020.682362)  can0  TX - -  108   [6]  06 18 05 E3 16 7E
 (020.682432)  can0  RX - -  109   [8]  0B 19 57 8B F4 8C 95 4D
 (020.682561)  can0  RX - -  109   [8]  EC 95 7E 05 19 03 40 7E
 (020.741436)  can0  RX - -  109   [8]  0F 19 5E 0A 8B F6 8D BF
 (020.741555)  can0  RX - -  109   [7]  56 81 EE 5A 88 34 7E
 (020.751675)  can0  RX - -  109   [8]  0F 19 5E 0B 8B F6 94 E9
 (020.751792)  can0  RX - -  109   [7]  16 81 F3 49 FD B4 7E
 (021.040677)  can0  RX - -  109   [8]  0F 19 5E 0A 8B F7 E9 9C
 (021.040804)  can0  RX - -  109   [7]  56 81 EE 5F AA 0C 7E
 (021.050922)  can0  RX - -  109   [8]  0F 19 5E 0B 8B F7 F0 C6
 (021.051043)  can0  RX - -  109   [7]  16 81 F3 48 EE 98 7E
 (021.341203)  can0  RX - -  109   [8]  0F 19 5E 0A 8B F9 C4 F9
 (021.341333)  can0  RX - -  109   [7]  56 81 EE 5A 4C D8 7E
 (021.351430)  can0  RX - -  109   [8]  0F 19 5E 0B 8B F9 CC A3
 (021.351553)  can0  RX - -  109   [7]  16 81 F3 45 C2 9F 7E
 (021.641685)  can0  RX - -  109   [8]  0F 19 5E 0A 8B FB A0 D6
 (021.641812)  can0  RX - -  109   [7]  56 81 EE 62 5B D8 7E
 (021.650683)  can0  RX - -  109   [8]  0F 19 5E 0B 8B FB A8 80
 (021.650806)  can0  RX - -  109   [7]  16 81 F3 49 D5 08 7E
 (021.665934)  can0  TX - -  108   [6]  06 19 05 FA CE 7E
 (021.667315)  can0  RX - -  109   [8]  0B 1A 57 8B F9 DC F6 5D
 (021.667436)  can0  RX - -  109   [8]  13 2B 7E 05 1A 31 DB 7E
 (021.941295)  can0  RX - -  109   [8]  0F 1A 5E 0A 8B FC FC B3
 (021.941415)  can0  RX - -  109   [7]  56 81 EE 5A 29 CA 7E
 (021.951542)  can0  RX - -  109   [8]  0F 1A 5E 0B 8B FD 83 DD
 (021.951670)  can0  RX - -  109   [7]  16 81 F3 49 D2 25 7E
 (022.240563)  can0  RX - -  109   [8]  0F 1A 5E 0A 8B FE D8 90
 (022.240678)  can0  RX - -  109   [7]  56 81 EE 5D 82 5F 7E
 (022.250791)  can0  RX - -  109   [8]  0F 1A 5E 0B 8B FE DF BA
 (022.250924)  can0  RX - -  109   [7]  16 81 F3 48 8B 38 7E
 (022.541019)  can0  RX - -  109   [8]  0F 1A 5E 0A 8C 80 B3 ED
 (022.541142)  can0  RX - -  109   [7]  56 81 EE 5F 69 3D 7E
 (022.551271)  can0  RX - -  109   [8]  0F 1A 5E 0B 8C 80 BB 97
 (022.551392)  can0  RX - -  109   [7]  16 81 F3 46 E2 DD 7E
 (022.650262)  can0  TX - -  108   [6]  06 1A 05 D0 A6 7E
 (022.650425)  can0  RX - -  109   [8]  0B 1B 57 8B FF AD DA 1C
 (022.650515)  can0  RX - -  109   [8]  C4 7E 7E 05 1B 20 52 7E
 (022.840652)  can0  RX - -  109   [8]  0F 1B 5E 0A 8C 82 8F CA
 (022.840763)  can0  RX - -  109   [7]  56 81 EE 5B EB 5A 7E
 (022.850893)  can0  RX - -  109   [8]  0F 1B 5E 0B 8C 82 96 F4
 (022.851017)  can0  RX - -  109   [7]  16 81 F3 48 65 49 7E
 (023.141145)  can0  RX - -  109   [8]  0F 1B 5E 0A 8C 83 EB A7
 (023.141258)  can0  RX - -  109   [7]  56 81 EE 60 B1 05 7E
 (023.151390)  can0  RX - -  109   [8]  0F 1B 5E 0B 8C 83 F2 D1
 (023.151511)  can0  RX - -  109   [7]  16 81 F3 47 D3 B3 7E
 (023.441640)  can0  RX - -  109   [8]  0F 1B 5E 0A 8C 85 C7 84
 (023.441767)  can0  RX - -  109   [7]  56 81 EE 59 8C 43 7E
 (023.450640)  can0  RX - -  109   [8]  0F 1B 5E 0B 8C 85 CE AE
 (023.450764)  can0  RX - -  109   [7]  16 81 F3 49 EB 2B 7E
 (023.634633)  can0  TX - -  108   [6]  06 1B 05 C9 7E 7E
 (023.634763)  can0  RX - -  109   [8]  0B 1C 57 8C 84 FE D3 68
 (023.634878)  can0  RX - -  109   [8]  27 D6 7E 05 1C 54 ED 7E
 (023.741267)  can0  RX - -  109   [8]  0F 1C 5E 0A 8C 87 A2 E1
 (023.741381)  can0  RX - -  109   [7]  56 81 EE 5B 2C DD 7E
 (023.751521)  can0  RX - -  109   [8]  0F 1C 5E 0B 8C 87 AA 8B
 (023.751630)  can0  RX - -  109   [7]  16 81 F3 45 67 C2 7E
 (024.040517)  can0  RX - -  109   [8]  0F 1C 5E 0A 8C 88 FE BE
 (024.040632)  can0  RX - -  109   [7]  56 81 EE 61 C5 FB 7E
 (024.050760)  can0  RX - -  109   [8]  0F 1C 5E 0B 8C 89 85 E8
 (024.050885)  can0  RX - -  109   [7]  16 81 F3 46 D7 EE 7E
 (024.261017)  can0  RX - -  109   [8]  0E 1C 55 81 52 81 F8 30
 (024.261129)  can0  RX - -  109   [6]  83 F7 5F 26 D0 7E
 (024.341268)  can0  RX - -  109   [8]  0F 1C 5E 0A 8C 8A DA 9B
 (024.341381)  can0  RX - -  109   [7]  56 81 EE 5C CB 2F 7E
 (024.351502)  can0  RX - -  109   [8]  0F 1C 5E 0B 8C 8A E1 C5
 (024.351632)  can0  RX - -  109   [7]  16 81 F3 48 1D 06 7E
 (024.619256)  can0  TX - -  108   [6]  06 1C 05 84 76 7E
 (024.620632)  can0  RX - -  109   [8]  0B 1D 57 8C 8A D0 87 75
 (024.620756)  can0  RX - -  109   [8]  7A 92 7E 05 1D 45 64 7E
 (024.640885)  can0  RX - -  109   [8]  0F 1D 5E 0A 8C 8C B5 F8
 (024.641014)  can0  RX - -  109   [7]  56 81 EE 60 3B DB 7E
 (024.651137)  can0  RX - -  109   [8]  0F 1D 5E 0B 8C 8C BD A2
 (024.651257)  can0  RX - -  109   [7]  16 81 F3 44 3A CC 7E
 (024.941388)  can0  RX - -  109   [8]  0F 1D 5E 0A 8C 8E 91 D5
 (024.941514)  can0  RX - -  109   [7]  56 81 EE 5B 0A 19 7E
 (024.950381)  can0  RX - -  109   [8]  0F 1D 5E 0B 8C 8E 98 FF
 (024.950504)  can0  RX - -  109   [7]  16 81 F3 49 4E 63 7E
 (025.240639)  can0  RX - -  109   [8]  0F 1D 5E 0A 8C 8F ED B2
 (025.240760)  can0  RX - -  109   [7]  56 81 EE 5B F0 56 7E
 (025.250885)  can0  RX - -  109   [8]  0F 1D 5E 0B 8C 8F F4 DC
 (025.251007)  can0  RX - -  109   [7]  16 81 F3 47 F3 D0 7E
 (025.541136)  can0  RX - -  109   [8]  0F 1D 5E 0A 8C 91 C9 8F
 (025.541259)  can0  RX - -  109   [7]  56 81 EE 5E A9 7A 7E
 (025.551383)  can0  RX - -  109   [8]  0F 1D 5E 0B 8C 91 D0 B9
 (025.551507)  can0  RX - -  109   [7]  16 81 F3 49 3B 6D 7E
 (025.604125)  can0  TX - -  108   [6]  06 1D 05 9D AE 7E
 (025.604249)  can0  RX - -  109   [8]  0B 1E 57 8C 90 A1 93 7F
 (025.604374)  can0  RX - -  109   [8]  4A 5C 7E 05 1E 77 FF 7E
 (025.840770)  can0  RX - -  109   [8]  0F 1E 5E 0A 8C 93 A4 EC
 (025.840880)  can0  RX - -  109   [7]  56 81 EE 5D 5C F8 7E
 (025.851006)  can0  RX - -  109   [8]  0F 1E 5E 0B 8C 93 AC 96
 (025.851124)  can0  RX - -  109   [7]  16 81 F3 48 1D 74 7E
 (026.141267)  can0  RX - -  109   [8]  0F 1E 5E 0A 8C 95 80 C9
 (026.141381)  can0  RX - -  109   [7]  56 81 EE 5F F4 2E 7E
 (026.151500)  can0  RX - -  109   [8]  0F 1E 5E 0B 8C 95 87 F3
 (026.151627)  can0  RX - -  109   [7]  16 81 F3 46 83 65 7E
 (026.440512)  can0  RX - -  109   [8]  0F 1E 5E 0A 8C 96 DC A6
 (026.440635)  can0  RX - -  109   [7]  56 81 EE 60 2F EE 7E
 (026.450749)  can0  RX - -  109   [8]  0F 1E 5E 0B 8C 96 E3 D0
 (026.450877)  can0  RX - -  109   [7]  16 81 F3 47 D0 C2 7E
 (026.589750)  can0  TX - -  108   [6]  06 1E 05 B7 C6 7E
 (026.589874)  can0  RX - -  109   [8]  0B 1F 57 8C 95 F2 CE 78
 (026.589996)  can0  RX - -  109   [8]  C0 69 7E 05 1F 66 76 7E
 (026.741388)  can0  RX - -  109   [8]  0F 1F 5E 0A 8C 98 B8 83
 (026.741501)  can0  RX - -  109   [7]  56 81 EE 60 2D 86 7E
 (026.750373)  can0  RX - -  109   [8]  0F 1F 5E 0B 8C 98 BF AD
 (026.750496)  can0  RX - -  109   [7]  16 81 F3 49 F2 1E 7E
 (027.040628)  can0  RX - -  109   [8]  0F 1F 5E 0A 8C 9A 93 E0
 (027.040746)  can0  RX - -  109   [7]  56 81 EE 5A 90 DE 7E
 (027.050881)  can0  RX - -  109   [8]  0F 1F 5E 0B 8C 9A 9B 8A
 (027.050999)  can0  RX - -  109   [7]  16 81 F3 49 00 24 7E
 (027.341146)  can0  RX - -  109   [8]  0F 1F 5E 0A 8C 9B EF BD
 (027.341258)  can0  RX - -  109   [7]  56 81 EE 5F A5 45 7E
 (027.351372)  can0  RX - -  109   [8]  0F 1F 5E 0B 8C 9B F6 E7
 (027.351493)  can0  RX - -  109   [7]  16 81 F3 47 19 26 7E
 (027.574184)  can0  TX - -  108   [6]  06 1F 05 AE 1E 7E
 (027.574283)  can0  RX - -  109   [8]  0B 10 57 8C 9B C3 D7 01
 (027.574414)  can0  RX - -  109   [8]  07 62 7E 05 10 9E 81 7E
 (027.640827)  can0  RX - -  109   [8]  0F 10 5E 0A 8C 9D CB 9A
 (027.640918)  can0  RX - -  109   [7]  56 81 EE 5D 07 57 7E
 (027.651042)  can0  RX - -  109   [8]  0F 10 5E 0B 8C 9D D2 C4
 (027.651242)  can0  RX - -  109   [7]  16 81 F3 47 B5 36 7E
 (027.941286)  can0  RX - -  109   [8]  0F 10 5E 0A 8C 9F A6 F7
 (027.941414)  can0  RX - -  109   [7]  56 81 EE 5C 4E CC 7E
 (027.951529)  can0  RX - -  109   [8]  0F 10 5E 0B 8C 9F AE A1
 (027.951697)  can0  RX - -  109   [7]  16 81 F3 49 18 E1 7E
 (028.240529)  can0  RX - -  109   [8]  0F 10 5E 0A 8C A1 82 D4
 (028.240774)  can0  RX - -  109   [7]  56 81 EE 60 0D D9 7E
 (028.250793)  can0  RX - -  109   [8]  0F 10 5E 0B 8C A1 89 FE
 (028.250920)  can0  RX - -  109   [7]  16 81 F3 48 DF 2C 7E
 (028.541035)  can0  RX - -  109   [8]  0F 10 5E 0A 8C A2 DE B1
 (028.541158)  can0  RX - -  109   [7]  56 81 EE 5E 8B 38 7E
 (028.551276)  can0  RX - -  109   [8]  0F 10 5E 0B 8C A2 E5 DB
 (028.551394)  can0  RX - -  109   [7]  16 81 F3 47 7F 35 7E
 (028.559027)  can0  TX - -  108   [6]  06 10 05 2D D6 7E
 (028.559167)  can0  RX - -  109   [8]  0B 11 57 8C A1 94 F6 69
 (028.559291)  can0  RX - -  109   [8]  D2 A8 7E 05 11 8F 08 7E
 (028.840663)  can0  RX - -  109   [8]  0F 11 5E 0A 8C A4 BA 8E
 (028.840776)  can0  RX - -  109   [7]  56 81 EE 5D 9D CF 7E
 (028.850894)  can0  RX - -  109   [8]  0F 11 5E 0B 8C A4 C1 B8
 (028.851033)  can0  RX - -  109   [7]  16 81 F3 48 A3 2D 7E
 (029.141186)  can0  RX - -  109   [8]  0F 11 5E 0A 8C A6 95 EB
 (029.141275)  can0  RX - -  109   [7]  56 81 EE 5C 84 F3 7E
 (029.151408)  can0  RX - -  109   [8]  0F 11 5E 0B 8C A6 9D 95
 (029.151555)  can0  RX - -  109   [7]  16 81 F3 47 01 11 7E
 (029.360416)  can0  RX - -  109   [8]  0E 11 55 81 52 81 F5 0E
 (029.360582)  can0  RX - -  109   [6]  83 F2 3C 62 A3 7E
 (029.440666)  can0  RX - -  109   [8]  0F 11 5E 0A 8C A7 F1 C8
 (029.440771)  can0  RX - -  109   [7]  56 81 EE 5A 94 50 7E
 (029.450895)  can0  RX - -  109   [8]  0F 11 5E 0B 8C A7 F8 F2
 (029.451017)  can0  RX - -  109   [7]  16 81 F3 44 AE 06 7E
 (029.543647)  can0  TX - -  108   [6]  06 11 05 34 0E 7E
 (029.543771)  can0  RX - -  109   [8]  0B 12 57 8C A6 E6 96 1A
 (029.543901)  can0  RX - -  109   [8]  3C CE 7E 05 12 BD 93 7E
 (029.740277)  can0  RX - -  109   [8]  0F 12 5E 0A 8C A9 CD A5
 (029.740403)  can0  RX - -  109   [7]  56 81 EE 60 59 F8 7E
 (029.750518)  can0  RX - -  109   [8]  0F 12 5E 0B 8C A9 D4 CF
 (029.750656)  can0  RX - -  109   [7]  16 81 F3 48 00 C9 7E
 (030.040777)  can0  RX - -  109   [8]  0F 12 5E 0A 8C AB A9 82
 (030.040895)  can0  RX - -  109   [7]  56 81 EE 62 8A 01 7E
 (030.051019)  can0  RX - -  109   [8]  0F 12 5E 0B 8C AB B0 AC
 (030.051260)  can0  RX - -  109   [7]  16 81 F3 46 F5 6E 7E
 (030.341286)  can0  RX - -  109   [8]  0F 12 5E 0A 8C AD 84 DF
 (030.341492)  can0  RX - -  109   [7]  56 81 EE 5B C7 27 7E
 (030.350269)  can0  RX - -  109   [8]  0F 12 5E 0B 8C AD 8C 89
 (030.350443)  can0  RX - -  109   [7]  16 81 F3 45 2F D9 7E
 (030.528029)  can0  TX - -  108   [6]  06 12 05 1E 66 7E
 (030.528137)  can0  RX - -  109   [8]  0B 13 57 8C AC B7 83 51
 (030.528273)  can0  RX - -  109   [8]  B1 74 7E 05 13 AC 1A 7E
 (030.640902)  can0  RX - -  109   [8]  0F 13 5E 0A 8C AE E0 BC
 (030.641022)  can0  RX - -  109   [7]  56 81 EE 61 8F 63 7E
 (030.651237)  can0  RX - -  109   [8]  0F 13 5E 0B 8C AE E7 E6
 (030.651309)  can0  RX - -  109   [7]  16 81 F3 47 90 EF 7E
 (030.941401)  can0  RX - -  109   [8]  0F 13 5E 0A 8C B0 BC 99
 (030.941528)  can0  RX - -  109   [7]  56 81 EE 56 CE E7 7E
 (030.950391)  can0  RX - -  109   [8]  0F 13 5E 0B 8C B0 C3 C3
 (030.950517)  can0  RX - -  109   [7]  16 81 F3 48 88 F9 7E
 (031.240631)  can0  RX - -  109   [8]  0F 13 5E 0A 8C B2 97 F6
 (031.240749)  can0  RX - -  109   [7]  56 81 EE 5F 07 97 7E
 (031.250884)  can0  RX - -  109   [8]  0F 13 5E 0B 8C B2 9F A0
 (031.251006)  can0  RX - -  109   [7]  16 81 F3 48 72 A8 7E
 (031.512397)  can0  TX - -  108   [6]  06 13 05 07 BE 7E
 (031.512515)  can0  RX - -  109   [8]  0B 14 57 8C B2 88 A7 72
 (031.512638)  can0  RX - -  109   [8]  80 2C 7E 05 14 D8 A5 7E
 (031.540267)  can0  RX - -  109   [8]  0F 14 5E 0A 8C B3 F3 D3
 (031.540430)  can0  RX - -  109   [7]  56 81 EE 5F E9 7C 7E
 (031.550524)  can0  RX - -  109   [8]  0F 14 5E 0B 8C B3 FA FD
 (031.550663)  can0  RX - -  109   [7]  16 81 F3 46 3E C5 7E
 (031.840783)  can0  RX - -  109   [8]  0F 14 5E 0A 8C B5 CF B0
 (031.840890)  can0  RX - -  109   [7]  56 81 EE 61 23 17 7E
 (031.851015)  can0  RX - -  109   [8]  0F 14 5E 0B 8C B5 D6 DA
 (031.851140)  can0  RX - -  109   [7]  16 81 F3 4B 59 34 7E
 (032.141283)  can0  RX - -  109   [8]  0F 14 5E 0A 8C B7 AB 8D
 (032.141553)  can0  RX - -  109   [7]  56 81 EE 5F F3 E9 7E
 (032.150299)  can0  RX - -  109   [8]  0F 14 5E 0B 8C B7 B2 B7
 (032.150387)  can0  RX - -  109   [7]  16 81 F3 49 07 47 7E
 (032.440523)  can0  RX - -  109   [8]  0F 14 5E 0A 8C B9 86 EA
 (032.440634)  can0  RX - -  109   [7]  56 81 EE 62 BE 7E 7E
 (032.450757)  can0  RX - -  109   [8]  0F 14 5E 0B 8C B9 8E 94
 (032.450885)  can0  RX - -  109   [7]  16 81 F3 4B 29 0D 7E
 (032.497264)  can0  TX - -  108   [6]  06 14 05 4A B6 7E
 (032.497400)  can0  RX - -  109   [8]  0B 15 57 8C B7 D9 D2 14
 (032.497510)  can0  RX - -  109   [8]  20 DD 7E 05 15 C9 2C 7E
 (032.741396)  can0  RX - -  109   [8]  0F 15 5E 0A 8C BA E2 C7
 (032.741615)  can0  RX - -  109   [7]  56 81 EE 5F 22 1F 7E
 (032.750400)  can0  RX - -  109   [8]  0F 15 5E 0B 8C BA E9 F1
 (032.750518)  can0  RX - -  109   [7]  16 81 F3 46 13 90 7E
 (033.040647)  can0  RX - -  109   [8]  0F 15 5E 0A 8C BC BE A4
 (033.040765)  can0  RX - -  109   [7]  56 81 EE 5A E0 95 7E
 (033.050883)  can0  RX - -  109   [8]  0F 15 5E 0B 8C BC C5 CE
 (033.051012)  can0  RX - -  109   [7]  16 81 F3 4A 8B 88 7E
 (033.341155)  can0  RX - -  109   [8]  0F 15 5E 0A 8C BE 9A 81
 (033.341257)  can0  RX - -  109   [7]  56 81 EE 5C 61 11 7E
 (033.351381)  can0  RX - -  109   [8]  0F 15 5E 0B 8C BE A1 AB
 (033.351512)  can0  RX - -  109   [7]  16 81 F3 4A AC C9 7E
 (033.481636)  can0  TX - -  108   [6]  06 15 05 53 6E 7E
 (033.481766)  can0  RX - -  109   [8]  0B 16 57 8C BD AA BE 4D
 (033.481891)  can0  RX - -  109   [8]  38 10 7E 05 16 FB B7 7E
 (033.640770)  can0  RX - -  109   [8]  0F 16 5E 0A 8C BF F5 DE
 (033.640903)  can0  RX - -  109   [7]  56 81 EE 5B D1 6E 7E
 (033.651013)  can0  RX - -  109   [8]  0F 16 5E 0B 8C BF FD 88
 (033.651136)  can0  RX - -  109   [7]  16 81 F3 4A C1 67 7E
 (033.941266)  can0  RX - -  109   [8]  0F 16 5E 0A 8C C1 D1 BB
 (033.941398)  can0  RX - -  109   [7]  56 81 EE 5C 20 97 7E
 (033.950260)  can0  RX - -  109   [8]  0F 16 5E 0B 8C C1 D8 E5
 (033.950376)  can0  RX - -  109   [7]  16 81 F3 43 87 EB 7E
 (034.240516)  can0  RX - -  109   [8]  0F 16 5E 0A 8C C3 AD 98
 (034.240625)  can0  RX - -  109   [7]  56 81 EE 5D 8F 0D 7E
 (034.250755)  can0  RX - -  109   [8]  0F 16 5E 0B 8C C3 B4 C2
 (034.250904)  can0  RX - -  109   [7]  16 81 F3 45 33 6E 7E
 (034.459769)  can0  RX - -  109   [8]  0E 16 55 81 52 81 F5 0C
 (034.459898)  can0  RX - -  109   [6]  83 EF 4F FB D5 7E
 (034.466261)  can0  TX - -  108   [6]  06 16 05 79 06 7E
 (034.466386)  can0  RX - -  109   [8]  0B 17 57 8C C2 FC 81 54
 (034.466525)  can0  RX - -  109   [8]  A2 69 7E 05 17 EA 3E 7E
 (034.540379)  can0  RX - -  109   [8]  0F 17 5E 0A 8C C5 88 F5
 (034.540514)  can0  RX - -  109   [7]  56 81 EE 5D CE 71 7E
 (034.550624)  can0  RX - -  109   [8]  0F 17 5E 0B 8C C5 90 9F
 (034.550754)  can0  RX - -  109   [7]  16 81 F3 44 B3 61 7E
 (034.840898)  can0  RX - -  109   [8]  0F 17 5E 0A 8C C6 E4 D2
 (034.841133)  can0  RX - -  109   [7]  56 81 EE 62 49 63 7E
 (034.851141)  can0  RX - -  109   [8]  0F 17 5E 0B 8C C6 EB FC
 (034.851279)  can0  RX - -  109   [7]  16 81 F3 46 6C 46 7E
 (035.140148)  can0  RX - -  109   [8]  0F 17 5E 0A 8C C8 C0 AF
 (035.140243)  can0  RX - -  109   [7]  56 81 EE 5A 8E C2 7E
 (035.150379)  can0  RX - -  109   [8]  0F 17 5E 0B 8C C8 C7 D9
 (035.150501)  can0  RX - -  109   [7]  16 81 F3 47 09 BF 7E
 (035.440639)  can0  RX - -  109   [8]  0F 17 5E 0A 8C CA 9C 8C
 (035.440762)  can0  RX - -  109   [7]  56 81 EE 58 96 A3 7E
 (035.450885)  can0  TX - -  108   [6]  06 17 05 60 DE 7E
 (035.451016)  can0  RX - -  109   [8]  0F 17 5E 0B 8C CA A3 B6
 (035.451131)  can0  RX - -  109   [7]  16 81 F3 49 8B 28 7E
 (035.451281)  can0  RX - -  109   [8]  0B 18 57 8C C8 CD 84 6A
 (035.451385)  can0  RX - -  109   [8]  1D 04 7E 05 18 12 C9 7E
 (035.740256)  can0  RX - -  109   [8]  0F 18 5E 0A 8C CB F7 E9
 (035.740375)  can0  RX - -  109   [7]  56 81 EE 58 38 49 7E
 (035.750509)  can0  RX - -  109   [8]  0F 18 5E 0B 8C CB FF 93
 (035.750645)  can0  RX - -  109   [7]  16 81 F3 46 C7 16 7E
 (036.040757)  can0  RX - -  109   [8]  0F 18 5E 0A 8C CD D3 C6
 (036.040898)  can0  RX - -  109   [7]  56 81 EE 5F 8B 9A 7E
 (036.051003)  can0  RX - -  109   [8]  0F 18 5E 0B 8C CD DA F0
 (036.051128)  can0  RX - -  109   [7]  16 81 F3 49 4A B4 7E
 (036.341271)  can0  RX - -  109   [8]  0F 18 5E 0A 8C CF AF A3
 (036.341399)  can0  RX - -  109   [7]  56 81 EE 5D EC 21 7E
 (036.350248)  can0  RX - -  109   [8]  0F 18 5E 0B 8C CF B6 CD
 (036.350371)  can0  RX - -  109   [7]  16 81 F3 47 8A 91 7E
 (036.435506)  can0  TX - -  108   [6]  06 18 05 E3 16 7E
 (036.435629)  can0  RX - -  109   [8]  0B 19 57 8C CE 9E 93 05
 (036.435821)  can0  RX - -  109   [8]  E6 A4 7E 05 19 03 40 7E
 (036.640884)  can0  RX - -  109   [8]  0F 19 5E 0A 8C D1 8B 80
 (036.641082)  can0  RX - -  109   [7]  56 81 EE 5A 16 76 7E
 (036.651146)  can0  RX - -  109   [8]  0F 19 5E 0B 8C D1 92 AA
 (036.651258)  can0  RX - -  109   [7]  16 81 F3 49 01 35 7E
 (036.940133)  can0  RX - -  109   [8]  0F 19 5E 0A 8C D2 E6 DD
 (036.940252)  can0  RX - -  109   [7]  56 81 EE 5A 05 60 7E
 (036.950369)  can0  RX - -  109   [8]  0F 19 5E 0B 8C D2 EE 87
 (036.950548)  can0  RX - -  109   [7]  16 81 F3 47 A8 35 7E
 (037.240630)  can0  RX - -  109   [8]  0F 19 5E 0A 8C D4 C2 BA
 (037.240858)  can0  RX - -  109   [7]  56 81 EE 5D 2D B1 7E
 (037.250877)  can0  RX - -  109   [8]  0F 19 5E 0B 8C D4 C9 E4
 (037.251005)  can0  RX - -  109   [7]  16 81 F3 48 2D C1 7E
 (037.419878)  can0  TX - -  108   [6]  06 19 05 FA CE 7E
 (037.420055)  can0  RX - -  109   [8]  0B 1A 57 8C D3 EF BE 36
 (037.420128)  can0  RX - -  109   [8]  4C B3 7E 05 1A 31 DB 7E
 (037.540249)  can0  RX - -  109   [8]  0F 1A 5E 0A 8C D6 9E 97
 (037.540387)  can0  RX - -  109   [7]  56 81 EE 5D 89 C9 7E
 (037.550492)  can0  RX - -  109   [8]  0F 1A 5E 0B 8C D6 A5 C1
 (037.550616)  can0  RX - -  109   [7]  16 81 F3 48 14 49 7E
 (037.840770)  can0  RX - -  109   [8]  0F 1A 5E 0A 8C D7 F9 F4
 (037.840876)  can0  RX - -  109   [7]  56 81 EE 5E 03 98 7E
 (037.850997)  can0  RX - -  109   [8]  0F 1A 5E 0B 8C D8 81 9E
 (037.851144)  can0  RX - -  109   [7]  16 81 F3 45 C3 DF 7E
 (038.140004)  can0  RX - -  109   [8]  0F 1A 5E 0A 8C D9 D5 D1
 (038.140123)  can0  RX - -  109   [7]  56 81 EE 5D 45 73 7E
 (038.150240)  can0  RX - -  109   [8]  0F 1A 5E 0B 8C D9 DC FB
 (038.150363)  can0  RX - -  109   [7]  16 81 F3 46 9C C8 7E
 (038.405494)  can0  TX - -  108   [6]  06 1A 05 D0 A6 7E
 (038.405626)  can0  RX - -  109   [8]  0B 1B 57 8C D9 C0 FD 03
 (038.405732)  can0  RX - -  109   [8]  4C 14 7E 05 1B 20 52 7E
 (038.440879)  can0  RX - -  109   [8]  0F 1B 5E 0A 8C DB B1 AE
 (038.440998)  can0  RX - -  109   [7]  56 81 EE 5F EC 59 7E
 (038.451119)  can0  RX - -  109   [8]  0F 1B 5E 0B 8C DB B8 D8
 (038.451274)  can0  RX - -  109   [7]  16 81 F3 47 05 2B 7E
 (038.740122)  can0  RX - -  109   [8]  0F 1B 5E 0A 8C DD 8D 8B
 (038.740241)  can0  RX - -  109   [7]  56 81 EE 5A 53 D8 7E
 (038.750365)  can0  RX - -  109   [8]  0F 1B 5E 0B 8C DD 94 B5
 (038.750494)  can0  RX - -  109   [7]  16 81 F3 46 25 3C 7E
 (039.040624)  can0  RX - -  109   [8]  0F 1B 5E 0A 8C DE E8 E8
 (039.040736)  can0  RX - -  109   [7]  56 81 EE 59 E6 64 7E
 (039.050866)  can0  RX - -  109   [8]  0F 1B 5E 0B 8C DE F0 92
 (039.050986)  can0  RX - -  109   [7]  16 81 F3 46 4A 02 7E
 (039.341138)  can0  RX - -  109   [8]  0F 1B 5E 0A 8C E0 C4 C5
 (039.341241)  can0  RX - -  109   [7]  56 81 EE 60 B2 3C 7E
 (039.350114)  can0  RX - -  109   [8]  0F 1B 5E 0B 8C E0 CB EF
 (039.350229)  can0  RX - -  109   [7]  16 81 F3 48 70 65 7E
 (039.390369)  can0  TX - -  108   [6]  06 1B 05 C9 7E 7E
 (039.390517)  can0  RX - -  109   [8]  0B 1C 57 8C DF 92 B4 2C
 (039.390635)  can0  RX - -  109   [8]  BE 46 7E 05 1C 54 ED 7E
 (039.560746)  can0  RX - -  109   [8]  0E 1C 55 81 56 81 FA 35
 (039.560863)  can0  RX - -  109   [6]  83 FB 44 36 8B 7E
 (039.640997)  can0  RX - -  109   [8]  0F 1C 5E 0A 8C E2 A0 A2
 (039.641133)  can0  RX - -  109   [7]  56 81 EE 56 77 A6 7E
 (039.649996)  can0  RX - -  109   [8]  0F 1C 5E 0B 8C E2 A7 CC
 (039.650124)  can0  RX - -  109   [7]  16 81 F3 49 3D A9 7E
 (039.940249)  can0  RX - -  109   [8]  0F 1C 5E 0A 8C E3 FB FF
 (039.940383)  can0  RX - -  109   [7]  56 81 EE 5D 32 F2 7E
 (039.950490)  can0  RX - -  109   [8]  0F 1C 5E 0B 8C E4 83 A9
 (039.950617)  can0  RX - -  109   [7]  16 81 F3 46 8F B8 7E
 (040.240740)  can0  RX - -  109   [8]  0F 1C 5E 0A 8C E5 D7 DC
 (040.240866)  can0  RX - -  109   [7]  56 81 EE 52 5B 01 7E
 (040.250981)  can0  RX - -  109   [8]  0F 1C 5E 0B 8C E5 DF 86
 (040.251107)  can0  RX - -  109   [7]  16 81 F3 49 93 62 7E
 (040.374995)  can0  TX - -  108   [6]  06 1C 05 84 76 7E
 (040.375221)  can0  RX - -  109   [8]  0B 1D 57 8C E4 E3 D6 02
 (040.375263)  can0  RX - -  109   [8]  E9 E9 7E 05 1D 45 64 7E
 (040.540357)  can0  RX - -  109   [8]  0F 1D 5E 0A 8C E7 B3 B9
 (040.540491)  can0  RX - -  109   [7]  56 81 EE 60 3B 40 7E
 (040.550614)  can0  RX - -  109   [8]  0F 1D 5E 0B 8C E7 BA E3
 (040.550747)  can0  RX - -  109   [7]  16 81 F3 48 F4 10 7E
 (040.840884)  can0  RX - -  109   [8]  0F 1D 5E 0A 8C E9 8F 96
 (040.841022)  can0  RX - -  109   [7]  56 81 EE 5B CE 78 7E
 (040.851115)  can0  RX - -  109   [8]  0F 1D 5E 0B 8C E9 96 C0
 (040.851242)  can0  RX - -  109   [7]  16 81 F3 4A 98 EA 7E
 (041.140149)  can0  RX - -  109   [8]  0F 1D 5E 0A 8C EA EA F3
 (041.140241)  can0  RX - -  109   [7]  56 81 EE 5E 25 6A 7E
 (041.150398)  can0  RX - -  109   [8]  0F 1D 5E 0B 8C EA F2 9D
 (041.150492)  can0  RX - -  109   [7]  16 81 F3 44 47 F1 7E
 (041.359357)  can0  TX - -  108   [6]  06 1D 05 9D AE 7E
 (041.359486)  can0  RX - -  109   [8]  0B 1E 57 8C EA B4 B2 70
 (041.359602)  can0  RX - -  109   [8]  B2 83 7E 05 1E 77 FF 7E
 (041.440992)  can0  RX - -  109   [8]  0F 1E 5E 0A 8C EC C6 D0
 (041.441103)  can0  RX - -  109   [7]  56 81 EE 5A 0C F9 7E
 (041.449980)  can0  RX - -  109   [8]  0F 1E 5E 0B 8C EC CD FA
 (041.450123)  can0  RX - -  109   [7]  16 81 F3 47 B8 22 7E
 (041.740245)  can0  RX - -  109   [8]  0F 1E 5E 0A 8C EE A2 AD
 (041.740389)  can0  RX - -  109   [7]  56 81 EE 60 5B 01 7E
 (041.750485)  can0  RX - -  109   [8]  0F 1E 5E 0B 8C EE A9 D7
 (041.750620)  can0  RX - -  109   [7]  16 81 F3 46 15 E8 7E
 (042.040742)  can0  RX - -  109   [8]  0F 1E 5E 0A 8C EF FE 8A
 (042.040868)  can0  RX - -  109   [7]  56 81 EE 57 A0 30 7E
 (042.050983)  can0  RX - -  109   [8]  0F 1E 5E 0B 8C F0 85 B4
 (042.051109)  can0  RX - -  109   [7]  16 81 F3 49 D6 1C 7E
 (042.339998)  can0  RX - -  109   [8]  0F 1E 5E 0A 8C F1 D9 E7
 (042.340105)  can0  RX - -  109   [7]  56 81 EE 5D 78 F4 7E
 (042.342740)  can0  TX - -  108   [6]  06 1E 05 B7 C6 7E
 (042.342851)  can0  RX - -  109   [8]  0B 1F 57 8C F0 85 9A 62
 (042.342990)  can0  RX - -  109   [8]  30 4B 7E 05 1F 66 76 7E
 (042.350602)  can0  RX - -  109   [8]  0F 1F 5E 0B 8C F1 E1 91
 (042.350740)  can0  RX - -  109   [7]  16 81 F3 45 07 EC 7E
 (042.640866)  can0  RX - -  109   [8]  0F 1F 5E 0A 8C F3 B5 C4
 (042.641000)  can0  RX - -  109   [7]  56 81 EE 5F F2 D4 7E
 (042.649857)  can0  RX - -  109   [8]  0F 1F 5E 0B 8C F3 BC EE
 (042.649990)  can0  RX - -  109   [7]  16 81 F3 46 08 7D 7E
 (042.940126)  can0  RX - -  109   [8]  0F 1F 5E 0A 8C F5 91 A1
 (042.940238)  can0  RX - -  109   [7]  56 81 EE 63 43 DD 7E
 (042.950372)  can0  RX - -  109   [8]  0F 1F 5E 0B 8C F5 98 CB
 (042.950479)  can0  RX - -  109   [7]  16 81 F3 45 B1 22 7E
 (043.240615)  can0  RX - -  109   [8]  0F 1F 5E 0A 8C F6 EC FE
 (043.240725)  can0  RX - -  109   [7]  56 81 EE 5F FF 1C 7E
 (043.250852)  can0  RX - -  109   [8]  0F 1F 5E 0B 8C F6 F4 A8
 (043.250976)  can0  RX - -  109   [7]  16 81 F3 44 02 FF 7E
 (043.333607)  can0  TX - -  108   [6]  06 1F 05 AE 1E 7E
 (043.334980)  can0  RX - -  109   [8]  0B 10 57 8C F5 DB A2 56
 (043.335102)  can0  RX - -  109   [8]  DB D5 7E 05 10 9E 81 7E
 (043.540234)  can0  RX - -  109   [8]  0F 10 5E 0A 8C F8 C8 DB
 (043.540425)  can0  RX - -  109   [7]  56 81 EE 5A E1 D5 7E
 (043.550474)  can0  RX - -  109   [8]  0F 10 5E 0B 8C F8 D0 85
 (043.550602)  can0  RX - -  109   [7]  16 81 F3 48 DB D7 7E
 (043.840751)  can0  RX - -  109   [8]  0F 10 5E 0A 8C FA A4 B8
 (043.841029)  can0  RX - -  109   [7]  56 81 EE 5B CD DD 7E
 (043.850980)  can0  RX - -  109   [8]  0F 10 5E 0B 8C FA AB E2
 (043.851138)  can0  RX - -  109   [7]  16 81 F3 49 84 AE 7E
 (044.139981)  can0  RX - -  109   [8]  0F 10 5E 0A 8C FC 80 95
 (044.140100)  can0  RX - -  109   [7]  56 81 EE 62 B0 7B 7E
 (044.150229)  can0  RX - -  109   [8]  0F 10 5E 0B 8C FC 87 BF
 (044.150350)  can0  RX - -  109   [7]  16 81 F3 49 61 E1 7E
 (044.317988)  can0  TX - -  108   [6]  06 10 05 2D D6 7E
 (044.318105)  can0  RX - -  109   [8]  0B 11 57 8C FB AC 8F 7E
 (044.318230)  can0  RX - -  109   [8]  D8 9E 7E 05 11 8F 08 7E
 (044.440879)  can0  RX - -  109   [8]  0F 11 5E 0A 8C FD DB F2
 (044.440973)  can0  RX - -  109   [7]  56 81 EE 55 C3 28 7E
 (044.449862)  can0  RX - -  109   [8]  0F 11 5E 0B 8C FD E3 9C
 (044.449971)  can0  RX - -  109   [7]  16 81 F3 45 8B 89 7E
 (044.660109)  can0  RX - -  109   [8]  0E 11 55 81 52 81 F5 54
 (044.660245)  can0  RX - -  109   [6]  83 F1 1C 60 71 7E
 (044.740364)  can0  RX - -  109   [8]  0F 11 5E 0A 8C FF B7 CF
 (044.740489)  can0  RX - -  109   [7]  56 81 EE 5E 54 A0 7E
 (044.750589)  can0  RX - -  109   [8]  0F 11 5E 0B 8C FF BE F9
 (044.750722)  can0  RX - -  109   [7]  16 81 F3 48 95 8E 7E
 (045.040849)  can0  RX - -  109   [8]  0F 11 5E 0A 8D 81 93 AC
 (045.040982)  can0  RX - -  109   [7]  56 81 EE 5A 2D E5 7E
 (045.049852)  can0  RX - -  109   [8]  0F 11 5E 0B 8D 81 9A D6
 (045.049992)  can0  RX - -  109   [7]  16 81 F3 4A 3F EF 7E
 (045.303850)  can0  TX - -  108   [6]  06 11 05 34 0E 7E
 (045.303980)  can0  RX - -  109   [8]  0B 12 57 8D 80 FD C4 62
 (045.304107)  can0  RX - -  109   [8]  40 F8 7E 05 12 BD 93 7E
 (045.340488)  can0  RX - -  109   [8]  0F 12 5E 0A 8D 82 EF 89
 (045.340621)  can0  RX - -  109   [7]  56 81 EE 5D BD B7 7E
 (045.350720)  can0  RX - -  109   [8]  0F 12 5E 0B 8D 82 F6 B3
 (045.350845)  can0  RX - -  109   [7]  16 81 F3 46 92 FC 7E
 (045.640982)  can0  RX - -  109   [8]  0F 12 5E 0A 8D 84 CA E6
 (045.641099)  can0  RX - -  109   [7]  56 81 EE 5A CB 6D 7E
 (045.649983)  can0  RX - -  109   [8]  0F 12 5E 0B 8D 84 D2 90
 (045.650098)  can0  RX - -  109   [7]  16 81 F3 47 33 29 7E
 (045.940237)  can0  RX - -  109   [8]  0F 12 5E 0A 8D 86 A6 C3
 (045.940370)  can0  RX - -  109   [7]  56 81 EE 58 2F 44 7E
 (045.950496)  can0  RX - -  109   [8]  0F 12 5E 0B 8D 86 AD ED
 (045.950593)  can0  RX - -  109   [7]  16 81 F3 4A 4E 78 7E
 (046.240730)  can0  RX - -  109   [8]  0F 12 5E 0A 8D 88 82 A0
 (046.240959)  can0  RX - -  109   [7]  56 81 EE 5C C6 F2 7E
 (046.250969)  can0  RX - -  109   [8]  0F 12 5E 0B 8D 88 89 CA
 (046.251107)  can0  RX - -  109   [7]  16 81 F3 45 F5 2F 7E
 (046.287474)  can0  TX - -  108   [6]  06 12 05 1E 66 7E
 (046.287604)  can0  RX - -  109   [8]  0B 13 57 8D 86 CE B9 08
 (046.287760)  can0  RX - -  109   [8]  71 9D 7E 05 13 AC 1A 7E
 (046.540348)  can0  RX - -  109   [8]  0F 13 5E 0A 8D 89 DD FD
 (046.540465)  can0  RX - -  109   [7]  56 81 EE 5F 4A D3 7E
 (046.550592)  can0  RX - -  109   [8]  0F 13 5E 0B 8D 89 E5 A7
 (046.550711)  can0  RX - -  109   [7]  16 81 F3 46 66 72 7E
 (046.840869)  can0  RX - -  109   [8]  0F 13 5E 0A 8D 8B B9 DA
 (046.841144)  can0  RX - -  109   [7]  56 81 EE 5D 99 2A 7E
 (046.849844)  can0  RX - -  109   [8]  0F 13 5E 0B 8D 8B C1 84
 (046.849972)  can0  RX - -  109   [7]  16 81 F3 4A 73 34 7E
 (047.140118)  can0  RX - -  109   [8]  0F 13 5E 0A 8D 8D 95 B7
 (047.140219)  can0  RX - -  109   [7]  56 81 EE 60 42 D2 7E
 (047.150353)  can0  RX - -  109   [8]  0F 13 5E 0B 8D 8D 9C E1
 (047.150497)  can0  RX - -  109   [7]  16 81 F3 48 FA B2 7E
 (047.271834)  can0  TX - -  108   [6]  06 13 05 07 BE 7E
 (047.271964)  can0  RX - -  109   [8]  0B 14 57 8D 8C 9F CF 34
 (047.272108)  can0  RX - -  109   [8]  EC EF 7E 05 14 D8 A5 7E
 (047.439735)  can0  RX - -  109   [8]  0F 14 5E 0A 8D 8E F1 94
 (047.439850)  can0  RX - -  109   [7]  56 81 EE 59 0C 58 7E
 (047.449961)  can0  RX - -  109   [8]  0F 14 5E 0B 8D 8E F8 BE
 (047.450093)  can0  RX - -  109   [7]  16 81 F3 46 93 C7 7E
 (047.740237)  can0  RX - -  109   [8]  0F 14 5E 0A 8D 90 CC F1
 (047.740364)  can0  RX - -  109   [7]  56 81 EE 61 F7 93 7E
 (047.750475)  can0  RX - -  109   [8]  0F 14 5E 0B 8D 90 D4 9B
 (047.750609)  can0  RX - -  109   [7]  16 81 F3 49 AA 89 7E
 (048.040719)  can0  RX - -  109   [8]  0F 14 5E 0A 8D 92 A8 CE
 (048.040837)  can0  RX - -  109   [7]  56 81 EE 5C 03 7E 7E
 (048.049712)  can0  RX - -  109   [8]  0F 14 5E 0B 8D 92 AF F8
 (048.049841)  can0  RX - -  109   [7]  16 81 F3 48 D8 E0 7E
 (048.257466)  can0  TX - -  108   [6]  06 14 05 4A B6 7E
 (048.257585)  can0  RX - -  109   [8]  0B 15 57 8D 91 F0 FC 56
 (048.257718)  can0  RX - -  109   [8]  A8 40 7E 05 15 C9 2C 7E
 (048.340362)  can0  RX - -  109   [8]  0F 15 5E 0A 8D 94 84 AB
 (048.340463)  can0  RX - -  109   [7]  56 81 EE 5D 2C D8 7E
 (048.350604)  can0  RX - -  109   [8]  0F 15 5E 0B 8D 94 8B D5
 (048.350730)  can0  RX - -  109   [7]  16 81 F3 45 87 70 7E
 (048.640846)  can0  RX - -  109   [8]  0F 15 5E 0A 8D 95 E0 88
 (048.640960)  can0  RX - -  109   [7]  56 81 EE 5B 3C 7B 7E
 (048.649845)  can0  RX - -  109   [8]  0F 15 5E 0B 8D 95 E7 B2
 (048.649962)  can0  RX - -  109   [7]  16 81 F3 47 1C 9D 7E
 (048.940100)  can0  RX - -  109   [8]  0F 15 5E 0A 8D 97 BB E5
 (048.940226)  can0  RX - -  109   [7]  56 81 EE 5E EC EE 7E
 (048.950340)  can0  RX - -  109   [8]  0F 15 5E 0B 8D 97 C3 8F
 (048.950456)  can0  RX - -  109   [7]  16 81 F3 4A CD AA 7E
 (049.240593)  can0  RX - -  109   [8]  0F 15 5E 0A 8D 99 97 C2
 (049.240963)  can0  RX - -  109   [8]  0B 16 57 8D 97 C1 F5 70
 (049.241087)  can0  RX - -  109   [8]  04 EA 7E 05 16 FB B7 7E
 (049.240791)  can0  RX - -  109   [7]  56 81 EE 5E 8E 16 7E
 (049.240835)  can0  TX - -  108   [6]  06 15 05 53 6E 7E
 (049.249957)  can0  RX - -  109   [8]  0F 16 5E 0B 8D 99 9E EC
 (049.250098)  can0  RX - -  109   [7]  16 81 F3 46 B6 95 7E
 (049.540215)  can0  RX - -  109   [8]  0F 16 5E 0A 8D 9A F3 9F
 (049.540360)  can0  RX - -  109   [7]  56 81 EE 55 F8 13 7E
 (049.550461)  can0  RX - -  109   [8]  0F 16 5E 0B 8D 9A FA C9
 (049.550592)  can0  RX - -  109   [7]  16 81 F3 48 26 5D 7E
 (049.759482)  can0  RX - -  109   [8]  0E 16 55 81 52 81 F6 76
 (049.759618)  can0  RX - -  109   [6]  83 ED 72 B9 24 7E
 (049.839731)  can0  RX - -  109   [8]  0F 16 5E 0A 8D 9C CE FC
 (049.839898)  can0  RX - -  109   [7]  56 81 EE 5A 16 59 7E
 (049.849977)  can0  RX - -  109   [8]  0F 16 5E 0B 8D 9C D6 A6
 (049.850099)  can0  RX - -  109   [7]  16 81 F3 48 01 4B 7E
 (050.140240)  can0  RX - -  109   [8]  0F 16 5E 0A 8D 9E AA D9
 (050.140595)  can0  RX - -  109   [7]  56 81 EE 5F A7 97 7E
 (050.150476)  can0  RX - -  109   [8]  0F 16 5E 0B 8D 9E B2 83
 (050.150659)  can0  RX - -  109   [7]  16 81 F3 47 1F DF 7E
 (050.226971)  can0  TX - -  108   [6]  06 16 05 79 06 7E
 (050.227090)  can0  RX - -  109   [8]  0B 17 57 8D 9D 93 CA 28
 (050.227263)  can0  RX - -  109   [8]  9A 6D 7E 05 17 EA 3E 7E
 (050.439859)  can0  RX - -  109   [8]  0F 17 5E 0A 8D A0 86 B6
 (050.440076)  can0  RX - -  109   [7]  56 81 EE 5D FE A4 7E
 (050.450072)  can0  RX - -  109   [8]  0F 17 5E 0B 8D A0 8D E0
 (050.450217)  can0  RX - -  109   [7]  16 81 F3 49 B5 7D 7E
 (050.740350)  can0  RX - -  109   [8]  0F 17 5E 0A 8D A1 E2 93
 (050.740454)  can0  RX - -  109   [7]  56 81 EE 5B D5 9F 7E
 (050.750594)  can0  RX - -  109   [8]  0F 17 5E 0B 8D A1 E9 BD
 (050.750711)  can0  RX - -  109   [7]  16 81 F3 49 B4 A3 7E
 (051.039604)  can0  RX - -  109   [8]  0F 17 5E 0A 8D A3 BD F0
 (051.039707)  can0  RX - -  109   [7]  56 81 EE 5E 74 1E 7E
 (051.049839)  can0  RX - -  109   [8]  0F 17 5E 0B 8D A3 C5 9A
 (051.049955)  can0  RX - -  109   [7]  16 81 F3 49 67 C1 7E
 (051.211322)  can0  TX - -  108   [6]  06 17 05 60 DE 7E
 (051.211444)  can0  RX - -  109   [8]  0B 18 57 8D A2 E5 91 00
 (051.211568)  can0  RX - -  109   [8]  B1 86 7E 05 18 12 C9 7E
 (051.340491)  can0  RX - -  109   [8]  0F 18 5E 0A 8D A5 99 CD
 (051.340584)  can0  RX - -  109   [7]  56 81 EE 5A 4B D2 7E
 (051.350733)  can0  RX - -  109   [8]  0F 18 5E 0B 8D A5 A0 F7
 (051.350930)  can0  RX - -  109   [7]  16 81 F3 49 6D B1 7E
 (051.639707)  can0  RX - -  109   [8]  0F 18 5E 0A 8D A6 F5 AA
 (051.639833)  can0  RX - -  109   [7]  56 81 EE 5E 82 B2 7E
 (051.649951)  can0  RX - -  109   [8]  0F 18 5E 0B 8D A6 FC D4
 (051.650082)  can0  RX - -  109   [7]  16 81 F3 4A FB 8C 7E
 (051.940219)  can0  RX - -  109   [8]  0F 18 5E 0A 8D A8 D1 87
 (051.940433)  can0  RX - -  109   [7]  56 81 EE 5F 9C 33 7E
 (051.950457)  can0  RX - -  109   [8]  0F 18 5E 0B 8D A8 D8 B1
 (051.950576)  can0  RX - -  109   [7]  16 81 F3 4B 7E 0F 7E
 (052.195704)  can0  TX - -  108   [6]  06 18 05 E3 16 7E
 (052.197103)  can0  RX - -  109   [8]  0B 19 57 8D A8 B6 A6 4B
 (052.197223)  can0  RX - -  109   [8]  99 07 7E 05 19 03 40 7E
 (052.239838)  can0  RX - -  109   [8]  0F 19 5E 0A 8D AA AC E4
 (052.239948)  can0  RX - -  109   [7]  56 81 EE 5C 80 23 7E
 (052.250075)  can0  RX - -  109   [8]  0F 19 5E 0B 8D AA B4 8E
 (052.250211)  can0  RX - -  109   [7]  16 81 F3 48 26 D6 7E
 (052.540330)  can0  RX - -  109   [8]  0F 19 5E 0A 8D AC 88 C1
 (052.540447)  can0  RX - -  109   [7]  56 81 EE 56 A4 BD 7E
 (052.550574)  can0  RX - -  109   [8]  0F 19 5E 0B 8D AC 8F EB
 (052.550697)  can0  RX - -  109   [7]  16 81 F3 47 EB FE 7E
 (052.839587)  can0  RX - -  109   [8]  0F 19 5E 0A 8D AD E4 9E
 (052.839693)  can0  RX - -  109   [7]  56 81 EE 5B 49 56 7E
 (052.849852)  can0  RX - -  109   [8]  0F 19 5E 0B 8D AD EB C8
 (052.849955)  can0  RX - -  109   [7]  16 81 F3 46 8F E2 7E
 (053.140095)  can0  RX - -  109   [8]  0F 19 5E 0A 8D AF BF FB
 (053.140359)  can0  RX - -  109   [7]  56 81 EE 61 0A 97 7E
 (053.150337)  can0  RX - -  109   [8]  0F 19 5E 0B 8D AF C7 A5
 (053.150451)  can0  RX - -  109   [7]  16 81 F3 46 D1 0A 7E
 (053.180577)  can0  TX - -  108   [6]  06 19 05 FA CE 7E
 (053.180742)  can0  RX - -  109   [8]  0B 1A 57 8D AE 87 99 67
 (053.180822)  can0  RX - -  109   [8]  78 85 7E 05 1A 31 DB 7E
 (053.439704)  can0  RX - -  109   [8]  0F 1A 5E 0A 8D B1 9B D8
 (053.439896)  can0  RX - -  109   [7]  56 81 EE 5E E6 29 7E
 (053.449967)  can0  RX - -  109   [8]  0F 1A 5E 0B 8D B1 A3 82
 (053.450087)  can0  RX - -  109   [7]  16 81 F3 48 32 7F 7E
 (053.740203)  can0  RX - -  109   [8]  0F 1A 5E 0A 8D B2 F7 B5
 (053.740399)  can0  RX - -  109   [7]  56 81 EE 5D 17 5E 7E
 (053.750452)  can0  RX - -  109   [8]  0F 1A 5E 0B 8D B2 FE DF
 (053.750569)  can0  RX - -  109   [7]  16 81 F3 46 0F C7 7E
 (054.040700)  can0  RX - -  109   [8]  0F 1A 5E 0A 8D B4 D3 92
 (054.040816)  can0  RX - -  109   [7]  56 81 EE 5B EF 24 7E
 (054.049697)  can0  RX - -  109   [8]  0F 1A 5E 0B 8D B4 DA BC
 (054.049864)  can0  RX - -  109   [7]  16 81 F3 48 97 C7 7E
 (054.164964)  can0  TX - -  108   [6]  06 1A 05 D0 A6 7E
 (054.166327)  can0  RX - -  109   [8]  0B 1B 57 8D B3 D8 CE 13
 (054.166453)  can0  RX - -  109   [8]  CD 06 7E 05 1B 20 52 7E
 (054.340341)  can0  RX - -  109   [8]  0F 1B 5E 0A 8D B6 AE EF
 (054.340478)  can0  RX - -  109   [7]  56 81 EE 59 37 45 7E
 (054.350610)  can0  RX - -  109   [8]  0F 1B 5E 0B 8D B6 B6 99
 (054.350693)  can0  RX - -  109   [7]  16 81 F3 47 FD 9A 7E
 (054.639570)  can0  RX - -  109   [8]  0F 1B 5E 0A 8D B8 8A CC
 (054.639705)  can0  RX - -  109   [7]  56 81 EE 5C 0E 58 7E
 (054.649832)  can0  RX - -  109   [8]  0F 1B 5E 0B 8D B8 91 F6
 (054.649952)  can0  RX - -  109   [7]  16 81 F3 46 38 CC 7E
 (054.860085)  can0  RX - -  109   [8]  0E 1B 55 81 52 81 F5 78
 (054.860196)  can0  RX - -  109   [6]  83 EF 72 CC 88 7E
 (054.940319)  can0  RX - -  109   [8]  0F 1B 5E 0A 8D B9 E6 A9
 (054.940444)  can0  RX - -  109   [7]  56 81 EE 5B D4 90 7E
 (054.950561)  can0  RX - -  109   [8]  0F 1B 5E 0B 8D B9 ED D3
 (054.950723)  can0  RX - -  109   [7]  16 81 F3 45 27 B2 7E
 (055.149563)  can0  TX - -  108   [6]  06 1B 05 C9 7E 7E
 (055.149695)  can0  RX - -  109   [8]  0B 1C 57 8D B9 A9 D1 3C
 (055.149840)  can0  RX - -  109   [8]  C3 18 7E 05 1C 54 ED 7E
 (055.239946)  can0  RX - -  109   [8]  0F 1C 5E 0A 8D BB C2 86
 (055.240084)  can0  RX - -  109   [7]  56 81 EE 57 16 00 7E
 (055.250192)  can0  RX - -  109   [8]  0F 1C 5E 0B 8D BB C9 B0
 (055.250314)  can0  RX - -  109   [7]  16 81 F3 47 BA 4E 7E
 (055.540458)  can0  RX - -  109   [8]  0F 1C 5E 0A 8D BD 9D E3
 (055.540573)  can0  RX - -  109   [7]  56 81 EE 60 F1 FE 7E
 (055.549449)  can0  RX - -  109   [8]  0F 1C 5E 0B 8D BD A5 8D
 (055.549571)  can0  RX - -  109   [7]  16 81 F3 44 CE F8 7E
 (055.839695)  can0  RX - -  109   [8]  0F 1C 5E 0A 8D BE F9 C0
 (055.839825)  can0  RX - -  109   [7]  56 81 EE 5C 48 3F 7E
 (055.849961)  can0  RX - -  109   [8]  0F 1C 5E 0B 8D BF 80 EA
 (055.850072)  can0  RX - -  109   [7]  16 81 F3 45 E8 42 7E
 (056.135204)  can0  TX - -  108   [6]  06 1C 05 84 76 7E
 (056.135351)  can0  RX - -  109   [8]  0B 1D 57 8D BE FA F5 22
 (056.135445)  can0  RX - -  109   [8]  DA C7 7E 05 1D 45 64 7E
 (056.140579)  can0  RX - -  109   [8]  0F 1D 5E 0A 8D C0 D5 9D
 (056.140684)  can0  RX - -  109   [7]  56 81 EE 5B 43 FE 7E
 (056.149586)  can0  RX - -  109   [8]  0F 1D 5E 0B 8D C0 DC C7
 (056.149705)  can0  RX - -  109   [7]  16 81 F3 49 12 77 7E
 (056.439840)  can0  RX - -  109   [8]  0F 1D 5E 0A 8D C2 B0 FA
 (056.439925)  can0  RX - -  109   [7]  56 81 EE 5D 13 2A 7E
 (056.450074)  can0  RX - -  109   [8]  0F 1D 5E 0B 8D C2 B8 A4
 (056.450202)  can0  RX - -  109   [7]  16 81 F3 46 F6 59 7E
 (056.740323)  can0  RX - -  109   [8]  0F 1D 5E 0A 8D C4 8C D7
 (056.740451)  can0  RX - -  109   [7]  56 81 EE 5C B0 AF 7E
 (056.750565)  can0  RX - -  109   [8]  0F 1D 5E 0B 8D C4 94 81
 (056.750696)  can0  RX - -  109   [7]  16 81 F3 45 6E 5E 7E
 (057.039581)  can0  RX - -  109   [8]  0F 1D 5E 0A 8D C5 E8 B4
 (057.039693)  can0  RX - -  109   [7]  56 81 EE 62 DC E5 7E
 (057.049822)  can0  RX - -  109   [8]  0F 1D 5E 0B 8D C5 EF DE
 (057.049959)  can0  RX - -  109   [7]  16 81 F3 45 06 31 7E
 (057.118835)  can0  TX - -  108   [6]  06 1D 05 9D AE 7E
 (057.119087)  can0  RX - -  109   [8]  0B 1E 57 8D C4 CC 81 2E
 (057.119111)  can0  RX - -  109   [8]  F9 FD 7E 05 1E 77 FF 7E
 (057.340440)  can0  RX - -  109   [8]  0F 1E 5E 0A 8D C7 C4 91
 (057.340557)  can0  RX - -  109   [7]  56 81 EE 5E 1C 53 7E
 (057.349457)  can0  RX - -  109   [8]  0F 1E 5E 0B 8D C7 CB BB
 (057.349574)  can0  RX - -  109   [7]  16 81 F3 47 FE 00 7E
 (057.639685)  can0  RX - -  109   [8]  0F 1E 5E 0A 8D C9 9F EE
 (057.639825)  can0  RX - -  109   [7]  56 81 EE 5F 99 B0 7E
 (057.649935)  can0  RX - -  109   [8]  0F 1E 5E 0B 8D C9 A7 98
 (057.650056)  can0  RX - -  109   [7]  16 81 F3 47 B3 39 7E
 (057.940203)  can0  RX - -  109   [8]  0F 1E 5E 0A 8D CA FB CB
 (057.940347)  can0  RX - -  109   [7]  56 81 EE 5F E0 06 7E
 (057.950431)  can0  RX - -  109   [8]  0F 1E 5E 0B 8D CB 82 F5
 (057.950560)  can0  RX - -  109   [7]  16 81 F3 48 30 55 7E
 (058.103214)  can0  TX - -  108   [6]  06 1E 05 B7 C6 7E
 (058.103308)  can0  RX - -  109   [8]  0B 1F 57 8D CA 9C F4 63
 (058.103462)  can0  RX - -  109   [8]  5C 14 7E 05 1F 66 76 7E
 (058.239830)  can0  RX - -  109   [8]  0F 1F 5E 0A 8D CC D7 A8
 (058.239938)  can0  RX - -  109   [7]  56 81 EE 5C D7 2A 7E
 (058.250068)  can0  RX - -  109   [8]  0F 1F 5E 0B 8D CC DE D2
 (058.250179)  can0  RX - -  109   [7]  16 81 F3 46 6A 7A 7E
 (058.540314)  can0  RX - -  109   [8]  0F 1F 5E 0A 8D CE B3 85
 (058.540432)  can0  RX - -  109   [7]  56 81 EE 60 90 86 7E
 (058.550555)  can0  RX - -  109   [8]  0F 1F 5E 0B 8D CE BA AF
 (058.550729)  can0  RX - -  109   [7]  16 81 F3 49 5B AC 7E
 (058.839559)  can0  RX - -  109   [8]  0F 1F 5E 0A 8D D0 8E E2
 (058.839790)  can0  RX - -  109   [7]  56 81 EE 5D 2A 68 7E
 (058.849827)  can0  RX - -  109   [8]  0F 1F 5E 0B 8D D0 96 8C
 (058.849937)  can0  RX - -  109   [7]  16 81 F3 46 59 7A 7E
 (059.087561)  can0  TX - -  108   [6]  06 1F 05 AE 1E 7E
 (059.088936)  can0  RX - -  109   [8]  0B 10 57 8D CF EE 92 58
 (059.089071)  can0  RX - -  109   [8]  A0 02 7E 05 10 9E 81 7E
 (059.140443)  can0  RX - -  109   [8]  0F 10 5E 0A 8D D1 EA BF
 (059.140595)  can0  RX - -  109   [7]  56 81 EE 5A 43 45 7E
 (059.149455)  can0  RX - -  109   [8]  0F 10 5E 0B 8D D1 F1 E9
 (059.149697)  can0  RX - -  109   [7]  16 81 F3 49 3E 93 7E
 (059.439699)  can0  RX - -  109   [8]  0F 10 5E 0A 8D D3 C6 9C
 (059.439860)  can0  RX - -  109   [7]  56 81 EE 60 23 EE 7E
 (059.449931)  can0  RX - -  109   [8]  0F 10 5E 0B 8D D3 CD C6
 (059.450046)  can0  RX - -  109   [7]  16 81 F3 4A C7 FA 7E
 (059.740198)  can0  RX - -  109   [8]  0F 10 5E 0A 8D D5 A1 F9
 (059.740441)  can0  RX - -  109   [7]  56 81 EE 5D 8D C2 7E
 (059.750448)  can0  RX - -  109   [8]  0F 10 5E 0B 8D D5 A9 A3
 (059.750570)  can0  RX - -  109   [7]  16 81 F3 4C EA FB 7E
 (059.959435)  can0  RX - -  109   [8]  0E 10 55 81 52 81 F7 11
 (059.959616)  can0  RX - -  109   [6]  83 EF 67 E0 EB 7E
 (060.039672)  can0  RX - -  109   [8]  0F 10 5E 0A 8D D6 FD D6
 (060.039799)  can0  RX - -  109   [7]  56 81 EE 59 18 70 7E
 (060.049928)  can0  RX - -  109   [8]  0F 10 5E 0B 8D D7 85 80
 (060.050050)  can0  RX - -  109   [7]  16 81 F3 48 52 AD 7E
 (060.072682)  can0  TX - -  108   [6]  06 10 05 2D D6 7E
 (060.072809)  can0  RX - -  109   [8]  0B 11 57 8D D5 BF C8 0F
 (060.072939)  can0  RX - -  109   [8]  F1 5A 7E 05 11 8F 08 7E
 (060.339306)  can0  RX - -  109   [8]  0F 11 5E 0A 8D D8 D9 B3
 (060.339425)  can0  RX - -  109   [7]  56 81 EE 61 64 20 7E
 (060.349552)  can0  RX - -  109   [8]  0F 11 5E 0B 8D D8 E0 DD
 (060.349674)  can0  RX - -  109   [7]  16 81 F3 4A A7 FA 7E
 (060.639810)  can0  RX - -  109   [8]  0F 11 5E 0A 8D DA B5 90
 (060.640035)  can0  RX - -  109   [7]  56 81 EE 5F 40 7E 7E
 (060.650059)  can0  RX - -  109   [8]  0F 11 5E 0B 8D DA BC BA
 (060.650187)  can0  RX - -  109   [7]  16 81 F3 48 53 A9 7E
 (060.940316)  can0  RX - -  109   [8]  0F 11 5E 0A 8D DC 90 ED
 (060.940419)  can0  RX - -  109   [7]  56 81 EE 59 85 E5 7E
 (060.949299)  can0  RX - -  109   [8]  0F 11 5E 0B 8D DC 98 97
 (060.949423)  can0  RX - -  109   [7]  16 81 F3 48 82 4D 7E
 (061.057048)  can0  TX - -  108   [6]  06 11 05 34 0E 7E
 (061.057174)  can0  RX - -  109   [8]  0B 12 57 8D DB 90 B5 02
 (061.057356)  can0  RX - -  109   [8]  25 D3 7E 05 12 BD 93 7E
 (061.239935)  can0  RX - -  109   [8]  0F 12 5E 0A 8D DD EC CA
 (061.240042)  can0  RX - -  109   [7]  56 81 EE 5E 34 84 7E
 (061.250197)  can0  RX - -  109   [8]  0F 12 5E 0B 8D DD F3 F4
 (061.250323)  can0  RX - -  109   [7]  16 81 F3 47 0D 37 7E
 (061.540440)  can0  RX - -  109   [8]  0F 12 5E 0A 8D DF C8 A7
 (061.540567)  can0  RX - -  109   [7]  56 81 EE 5B 1C 99 7E
 (061.549431)  can0  RX - -  109   [8]  0F 12 5E 0B 8D DF CF D1
 (061.549561)  can0  RX - -  109   [7]  16 81 F3 49 63 13 7E
 (061.839677)  can0  RX - -  109   [8]  0F 12 5E 0A 8D E1 A4 84
 (061.839789)  can0  RX - -  109   [7]  56 81 EE 5F C1 CE 7E
 (061.849915)  can0  RX - -  109   [8]  0F 12 5E 0B 8D E1 AB AE
 (061.850040)  can0  RX - -  109   [7]  16 81 F3 4A E9 F1 7E
 (062.042682)  can0  TX - -  108   [6]  06 12 05 1E 66 7E
 (062.042791)  can0  RX - -  109   [8]  0B 13 57 8D E0 E1 E3 15
 (062.042928)  can0  RX - -  109   [8]  0F FC 7E 05 13 AC 1A 7E
 (062.139297)  can0  RX - -  109   [8]  0F 13 5E 0A 8D E2 FF E1
 (062.139473)  can0  RX - -  109   [7]  56 81 EE 5D F5 80 7E
 (062.149576)  can0  RX - -  109   [8]  0F 13 5E 0B 8D E3 87 8B
 (062.149671)  can0  RX - -  109   [7]  16 81 F3 4A 79 8A 7E
 (062.439814)  can0  RX - -  109   [8]  0F 13 5E 0A 8D E4 DB BE
 (062.439923)  can0  RX - -  109   [7]  56 81 EE 57 88 45 7E
 (062.450042)  can0  RX - -  109   [8]  0F 13 5E 0B 8D E4 E2 E8
 (062.450165)  can0  RX - -  109   [7]  16 81 F3 46 5B B7 7E
 (062.740308)  can0  RX - -  109   [8]  0F 13 5E 0A 8D E6 B7 9B
 (062.740436)  can0  RX - -  109   [7]  56 81 EE 5F C3 36 7E
 (062.749302)  can0  RX - -  109   [8]  0F 13 5E 0B 8D E6 BE C5
 (062.749429)  can0  RX - -  109   [7]  16 81 F3 49 F9 8B 7E
 (063.027055)  can0  TX - -  108   [6]  06 13 05 07 BE 7E
 (063.027171)  can0  RX - -  109   [8]  0B 14 57 8D E6 B3 9E 2B
 (063.027353)  can0  RX - -  109   [8]  2D 64 7E 05 14 D8 A5 7E
 (063.039938)  can0  RX - -  109   [8]  0F 14 5E 0A 8D E8 92 F8
 (063.040049)  can0  RX - -  109   [7]  56 81 EE 59 AD 5F 7E
 (063.050179)  can0  RX - -  109   [8]  0F 14 5E 0B 8D E8 9A A2
 (063.050323)  can0  RX - -  109   [7]  16 81 F3 45 11 83 7E
 (063.340420)  can0  RX - -  109   [8]  0F 14 5E 0A 8D E9 EE D5
 (063.340674)  can0  RX - -  109   [7]  56 81 EE 54 01 7F 7E
 (063.349418)  can0  RX - -  109   [8]  0F 14 5E 0B 8D E9 F5 FF
 (063.349540)  can0  RX - -  109   [7]  16 81 F3 49 F7 14 7E
 (063.639675)  can0  RX - -  109   [8]  0F 14 5E 0A 8D EB CA B2
 (063.639797)  can0  RX - -  109   [7]  56 81 EE 5E 9D 3D 7E
 (063.649917)  can0  RX - -  109   [8]  0F 14 5E 0B 8D EB D1 DC
 (063.650037)  can0  RX - -  109   [7]  16 81 F3 48 39 B7 7E
 (063.940179)  can0  RX - -  109   [8]  0F 14 5E 0A 8D ED A6 8F
 (063.940285)  can0  RX - -  109   [7]  56 81 EE 5D E9 8B 7E
 (063.949162)  can0  RX - -  109   [8]  0F 14 5E 0B 8D ED AD B9
 (063.949286)  can0  RX - -  109   [7]  16 81 F3 47 EA 9F 7E
 (064.010683)  can0  TX - -  108   [6]  06 14 05 4A B6 7E
 (064.010797)  can0  RX - -  109   [8]  0B 15 57 8D EC 84 80 7C
 (064.010965)  can0  RX - -  109   [8]  4D 0F 7E 05 15 C9 2C 7E
 (064.239802)  can0  RX - -  109   [8]  0F 15 5E 0A 8D EF 81 EC
 (064.239959)  can0  RX - -  109   [7]  56 81 EE 5E 9C F4 7E
 (064.250045)  can0  RX - -  109   [8]  0F 15 5E 0B 8D EF 89 96
 (064.250209)  can0  RX - -  109   [7]  16 81 F3 4A CC F1 7E
 (064.540299)  can0  RX - -  109   [8]  0F 15 5E 0A 8D F0 DD C9
 (064.540518)  can0  RX - -  109   [7]  56 81 EE 5E 07 99 7E
 (064.549288)  can0  RX - -  109   [8]  0F 15 5E 0B 8D F0 E4 F3
 (064.549408)  can0  RX - -  109   [7]  16 81 F3 49 67 DE 7E
 (064.839544)  can0  RX - -  109   [8]  0F 15 5E 0A 8D F2 B9 A6
 (064.839660)  can0  RX - -  109   [7]  56 81 EE 5B 3B DD 7E
 (064.849786)  can0  RX - -  109   [8]  0F 15 5E 0B 8D F2 C0 D0
 (064.849917)  can0  RX - -  109   [7]  16 81 F3 45 72 98 7E
 (064.995042)  can0  TX - -  108   [6]  06 15 05 53 6E 7E
 (064.995159)  can0  RX - -  109   [8]  0B 16 57 8D F1 D4 F7 2B
 (064.995298)  can0  RX - -  109   [8]  B5 5A 7E 05 16 FB B7 7E
 (064.995418)  can0  RX - -  109   [8]  0E 16 55 81 52 81 FA 1D
 (064.995545)  can0  RX - -  109   [6]  83 F9 7F BE F1 7E
 (065.139415)  can0  RX - -  109   [8]  0F 16 5E 0A 8D F4 95 83
 (065.139546)  can0  RX - -  109   [7]  56 81 EE 5C 1B 4D 7E
 (065.149702)  can0  RX - -  109   [8]  0F 16 5E 0B 8D F4 9C AD
 (065.149801)  can0  RX - -  109   [7]  16 81 F3 46 FE 6F 7E
 (065.439932)  can0  RX - -  109   [8]  0F 16 5E 0A 8D F5 F0 E0
 (065.440098)  can0  RX - -  109   [7]  56 81 EE 60 50 3E 7E
 (065.450158)  can0  RX - -  109   [8]  0F 16 5E 0B 8D F5 F8 8A
 (065.450279)  can0  RX - -  109   [7]  16 81 F3 48 4F 94 7E
 (065.739160)  can0  RX - -  109   [8]  0F 16 5E 0A 8D F7 CC BD
 (065.739316)  can0  RX - -  109   [7]  56 81 EE 60 98 B7 7E
 (065.749415)  can0  RX - -  109   [8]  0F 16 5E 0B 8D F7 D3 E7
 (065.749550)  can0  RX - -  109   [7]  16 81 F3 4A 2E BF 7E
 (065.979694)  can0  TX - -  108   [6]  06 16 05 79 06 7E
 (065.979801)  can0  RX - -  109   [8]  0B 17 57 8D F7 A5 EF 32
 (065.979909)  can0  RX - -  109   [8]  6D 00 7E 05 17 EA 3E 7E
 (066.040044)  can0  RX - -  109   [8]  0F 17 5E 0A 8D F9 A8 9A
 (066.040167)  can0  RX - -  109   [7]  56 81 EE 5A 12 8E 7E
 (066.050281)  can0  RX - -  109   [8]  0F 17 5E 0B 8D F9 AF C4
 (066.050400)  can0  RX - -  109   [7]  16 81 F3 49 46 3C 7E
 (066.339290)  can0  RX - -  109   [8]  0F 17 5E 0A 8D FB 83 F7
 (066.339404)  can0  RX - -  109   [7]  56 81 EE 5B 41 3E 7E
 (066.349537)  can0  RX - -  109   [8]  0F 17 5E 0B 8D FB 8B A1
 (066.349648)  can0  RX - -  109   [7]  16 81 F3 47 8A D2 7E
 (066.639799)  can0  RX - -  109   [8]  0F 17 5E 0A 8D FC DF D4
 (066.639906)  can0  RX - -  109   [7]  56 81 EE 5D EF D8 7E
 (066.650040)  can0  RX - -  109   [8]  0F 17 5E 0B 8D FC E6 FE
 (066.650157)  can0  RX - -  109   [7]  16 81 F3 46 F1 B3 7E
 (066.940291)  can0  RX - -  109   [8]  0F 17 5E 0A 8D FE BB B1
 (066.940409)  can0  RX - -  109   [7]  56 81 EE 60 22 FF 7E
 (066.949275)  can0  RX - -  109   [8]  0F 17 5E 0B 8D FE C2 DB
 (066.949418)  can0  RX - -  109   [7]  16 81 F3 46 15 01 7E
 (066.964532)  can0  TX - -  108   [6]  06 17 05 60 DE 7E
 (066.964670)  can0  RX - -  109   [8]  0B 18 57 8D FC F7 9D 66
 (066.964777)  can0  RX - -  109   [8]  55 6F 7E 05 18 12 C9 7E
 (067.239910)  can0  RX - -  109   [8]  0F 18 5E 0A 8E 80 97 8E
 (067.240037)  can0  RX - -  109   [7]  56 81 EE 57 6C 8B 7E
 (067.250153)  can0  RX - -  109   [8]  0F 18 5E 0B 8E 80 9E B8
 (067.250286)  can0  RX - -  109   [7]  16 81 F3 46 D9 1A 7E
 (067.539170)  can0  RX - -  109   [8]  0F 18 5E 0A 8E 81 F2 EB
 (067.539316)  can0  RX - -  109   [7]  56 81 EE 59 0E F1 7E
 (067.549413)  can0  RX - -  109   [8]  0F 18 5E 0B 8E 81 FA 95
 (067.549532)  can0  RX - -  109   [7]  16 81 F3 45 FF AC 7E
 (067.839659)  can0  RX - -  109   [8]  0F 18 5E 0A 8E 83 CE C8
 (067.839787)  can0  RX - -  109   [7]  56 81 EE 54 69 D6 7E
 (067.849895)  can0  RX - -  109   [8]  0F 18 5E 0B 8E 83 D5 F2
 (067.850025)  can0  RX - -  109   [7]  16 81 F3 47 C2 83 7E
 (067.950155)  can0  TX - -  108   [6]  06 18 05 E3 16 7E
 (067.950291)  can0  RX - -  109   [8]  0B 19 57 8E 82 C8 F0 7E
 (067.950397)  can0  RX - -  109   [8]  A6 FC 7E 05 19 03 40 7E
 (068.139290)  can0  RX - -  109   [8]  0F 19 5E 0A 8E 85 AA A5
 (068.139399)  can0  RX - -  109   [7]  56 81 EE 5D B3 91 7E
 (068.149523)  can0  RX - -  109   [8]  0F 19 5E 0B 8E 85 B1 CF
 (068.149643)  can0  RX - -  109   [7]  16 81 F3 49 19 19 7E
 (068.439790)  can0  RX - -  109   [8]  0F 19 5E 0A 8E 87 86 82
 (068.439897)  can0  RX - -  109   [7]  56 81 EE 5C 71 7A 7E
 (068.450022)  can0  RX - -  109   [8]  0F 19 5E 0B 8E 87 8D AC
 (068.450146)  can0  RX - -  109   [7]  16 81 F3 45 AE 95 7E
 (068.739042)  can0  RX - -  109   [8]  0F 19 5E 0A 8E 88 E1 DF
 (068.739169)  can0  RX - -  109   [7]  56 81 EE 5D EB 71 7E
 (068.749287)  can0  RX - -  109   [8]  0F 19 5E 0B 8E 88 E9 89
 (068.749506)  can0  RX - -  109   [7]  16 81 F3 49 AC D5 7E
 (068.934527)  can0  TX - -  108   [6]  06 19 05 FA CE 7E
 (068.934659)  can0  RX - -  109   [8]  0B 1A 57 8E 88 99 EA 46
 (068.934770)  can0  RX - -  109   [8]  DE 29 7E 05 1A 31 DB 7E
 (069.039909)  can0  RX - -  109   [8]  0F 1A 5E 0A 8E 8A BD BC
 (069.040054)  can0  RX - -  109   [7]  56 81 EE 5F CC 81 7E
 (069.050164)  can0  RX - -  109   [8]  0F 1A 5E 0B 8E 8A C4 E6
 (069.050281)  can0  RX - -  109   [7]  16 81 F3 48 0F A4 7E
 (069.339170)  can0  RX - -  109   [8]  0F 1A 5E 0A 8E 8C 99 99
 (069.339271)  can0  RX - -  109   [7]  56 81 EE 5C 75 DE 7E
 (069.349395)  can0  RX - -  109   [8]  0F 1A 5E 0B 8E 8C A0 C3
 (069.349520)  can0  RX - -  109   [7]  16 81 F3 49 97 38 7E
 (069.639651)  can0  RX - -  109   [8]  0F 1A 5E 0A 8E 8D F4 F6
 (069.639770)  can0  RX - -  109   [7]  56 81 EE 5F A1 B1 7E
 (069.649893)  can0  RX - -  109   [8]  0F 1A 5E 0B 8E 8D FC A0
 (069.650017)  can0  RX - -  109   [7]  16 81 F3 48 D4 8E 7E
 (069.918899)  can0  TX - -  108   [6]  06 1A 05 D0 A6 7E
 (069.919025)  can0  RX - -  109   [8]  0B 1B 57 8E 8D EB 93 0B
 (069.919249)  can0  RX - -  109   [8]  A4 F6 7E 05 1B 20 52 7E
 (069.939271)  can0  RX - -  109   [8]  0F 1B 5E 0A 8E 8F D0 D3
 (069.939398)  can0  RX - -  109   [7]  56 81 EE 5A 47 3F 7E
 (069.949509)  can0  RX - -  109   [8]  0F 1B 5E 0B 8E 8F D7 FD
 (069.949657)  can0  RX - -  109   [7]  16 81 F3 47 EF 00 7E
 (070.059778)  can0  RX - -  109   [8]  0E 1B 55 81 54 81 F8 12
 (070.059890)  can0  RX - -  109   [6]  83 FA 74 23 64 7E
 (070.240026)  can0  RX - -  109   [8]  0F 1B 5E 0A 8E 91 AC B0
 (070.240153)  can0  RX - -  109   [7]  56 81 EE 59 0E C6 7E
 (070.249024)  can0  RX - -  109   [8]  0F 1B 5E 0B 8E 91 B3 DA
 (070.249244)  can0  RX - -  109   [7]  16 81 F3 48 E3 4F 7E
 (070.539296)  can0  RX - -  109   [8]  0F 1B 5E 0A 8E 93 88 8D
 (070.539399)  can0  RX - -  109   [7]  56 81 EE 59 04 14 7E
 (070.549526)  can0  RX - -  109   [8]  0F 1B 5E 0B 8E 93 8F B7
 (070.549652)  can0  RX - -  109   [7]  16 81 F3 47 07 E0 7E
 (070.839785)  can0  RX - -  109   [8]  0F 1B 5E 0A 8E 94 E3 EA
 (070.839964)  can0  RX - -  109   [7]  56 81 EE 61 45 3C 7E
 (070.850033)  can0  RX - -  109   [8]  0F 1B 5E 0B 8E 94 EB 94
 (070.850152)  can0  RX - -  109   [7]  16 81 F3 47 2A B8 7E
 (070.904014)  can0  TX - -  108   [6]  06 1B 05 C9 7E 7E
 (070.904138)  can0  RX - -  109   [8]  0B 1C 57 8E 93 BC C8 2A
 (070.904297)  can0  RX - -  109   [8]  06 3F 7E 05 1C 54 ED 7E
 (071.139397)  can0  RX - -  109   [8]  0F 1C 5E 0A 8E 96 BF C7
 (071.139617)  can0  RX - -  109   [7]  56 81 EE 5D 44 FE 7E
 (071.149640)  can0  RX - -  109   [8]  0F 1C 5E 0B 8E 96 C6 F1
 (071.149765)  can0  RX - -  109   [7]  16 81 F3 48 72 4A 7E
 (071.439910)  can0  RX - -  109   [8]  0F 1C 5E 0A 8E 98 9B A4
 (071.440017)  can0  RX - -  109   [7]  56 81 EE 5C FA E5 7E
 (071.450144)  can0  RX - -  109   [8]  0F 1C 5E 0B 8E 98 A2 CE
 (071.450261)  can0  RX - -  109   [7]  16 81 F3 48 DD 5B 7E
 (071.739140)  can0  RX - -  109   [8]  0F 1C 5E 0A 8E 99 F7 81
 (071.739277)  can0  RX - -  109   [7]  56 81 EE 59 C2 1D 7E
 (071.749400)  can0  RX - -  109   [8]  0F 1C 5E 0B 8E 99 FE AB
 (071.749533)  can0  RX - -  109   [7]  16 81 F3 47 4C 0B 7E
 (071.888397)  can0  TX - -  108   [6]  06 1C 05 84 76 7E
 (071.888522)  can0  RX - -  109   [8]  0B 1D 57 8E 99 8E 82 23
 (071.888684)  can0  RX - -  109   [8]  50 85 7E 05 1D 45 64 7E
 (072.040040)  can0  RX - -  109   [8]  0F 1D 5E 0A 8E 9B D2 DE
 (072.040132)  can0  RX - -  109   [7]  56 81 EE 5E 5A F1 7E
 (072.049021)  can0  RX - -  109   [8]  0F 1D 5E 0B 8E 9B DA 88
 (072.049169)  can0  RX - -  109   [7]  16 81 F3 4B 0C DC 7E
 (072.339283)  can0  RX - -  109   [8]  0F 1D 5E 0A 8E 9D AE BB
 (072.339439)  can0  RX - -  109   [7]  56 81 EE 60 A9 D3 7E
 (072.349524)  can0  RX - -  109   [8]  0F 1D 5E 0B 8E 9D B5 E5
 (072.349639)  can0  RX - -  109   [7]  16 81 F3 49 10 FC 7E
 (072.639779)  can0  RX - -  109   [8]  0F 1D 5E 0A 8E 9F 8A 98
 (072.639905)  can0  RX - -  109   [7]  56 81 EE 63 44 62 7E
 (072.650014)  can0  RX - -  109   [8]  0F 1D 5E 0B 8E 9F 91 C2
 (072.650133)  can0  RX - -  109   [7]  16 81 F3 47 0B B8 7E
 (072.879020)  can0  TX - -  108   [6]  06 1D 05 9D AE 7E
 (072.879147)  can0  RX - -  109   [8]  0B 1E 57 8E 9E E2 FF 0F
 (072.879304)  can0  RX - -  109   [8]  A4 F6 7E 05 1E 77 FF 7E
 (072.939396)  can0  RX - -  109   [8]  0F 1E 5E 0A 8E A0 E5 F5
 (072.939521)  can0  RX - -  109   [7]  56 81 EE 5A BE D2 7E
 (072.949637)  can0  RX - -  109   [8]  0F 1E 5E 0B 8E A0 ED 9F
 (072.949753)  can0  RX - -  109   [7]  16 81 F3 48 3F A1 7E
 (073.239890)  can0  RX - -  109   [8]  0F 1E 5E 0A 8E A2 C1 D2
 (073.240006)  can0  RX - -  109   [7]  56 81 EE 5E 0A CC 7E
 (073.248880)  can0  RX - -  109   [8]  0F 1E 5E 0B 8E A2 C8 FC
 (073.249008)  can0  RX - -  109   [7]  16 81 F3 47 DD 75 7E
 (073.539144)  can0  RX - -  109   [8]  0F 1E 5E 0A 8E A4 9D AF
 (073.539321)  can0  RX - -  109   [7]  56 81 EE 5E 4A 13 7E
 (073.549417)  can0  RX - -  109   [8]  0F 1E 5E 0B 8E A4 A4 D9
 (073.549514)  can0  RX - -  109   [7]  16 81 F3 47 75 38 7E
 (073.839656)  can0  RX - -  109   [8]  0F 1E 5E 0A 8E A5 F9 8C
 (073.839765)  can0  RX - -  109   [7]  56 81 EE 5B 68 2B 7E
 (073.849911)  can0  RX - -  109   [8]  0F 1E 5E 0B 8E A6 80 B6
 (073.850038)  can0  RX - -  109   [7]  16 81 F3 45 3F 12 7E
 (073.863887)  can0  TX - -  108   [6]  06 1E 05 B7 C6 7E
 (073.864050)  can0  RX - -  109   [8]  0B 1F 57 8E A4 B4 BC 5E
 (073.864160)  can0  RX - -  109   [8]  D1 47 7E 05 1F 66 76 7E
 (074.139265)  can0  RX - -  109   [8]  0F 1F 5E 0A 8E A7 D4 E9
 (074.139379)  can0  RX - -  109   [7]  56 81 EE 60 B2 09 7E
 (074.149507)  can0  RX - -  109   [8]  0F 1F 5E 0B 8E A7 DC 93
 (074.149622)  can0  RX - -  109   [7]  16 81 F3 46 F0 9D 7E
 (074.439775)  can0  RX - -  109   [8]  0F 1F 5E 0A 8E A9 B0 C6
 (074.439879)  can0  RX - -  109   [7]  56 81 EE 5A 37 81 7E
 (074.450010)  can0  RX - -  109   [8]  0F 1F 5E 0B 8E A9 B7 F0
 (074.450141)  can0  RX - -  109   [7]  16 81 F3 45 52 CC 7E
 (074.739023)  can0  RX - -  109   [8]  0F 1F 5E 0A 8E AB 8C A3
 (074.739182)  can0  RX - -  109   [7]  56 81 EE 5F 26 54 7E
 (074.749268)  can0  RX - -  109   [8]  0F 1F 5E 0B 8E AB 93 CD
 (074.749387)  can0  RX - -  109   [7]  16 81 F3 47 7B 0C 7E
 (074.848262)  can0  TX - -  108   [6]  06 1F 05 AE 1E 7E
 (074.848432)  can0  RX - -  109   [8]  0B 10 57 8E AA 85 C0 1F
 (074.848524)  can0  RX - -  109   [8]  B0 6A 7E 05 10 9E 81 7E
 (075.039893)  can0  RX - -  109   [8]  0F 10 5E 0A 8E AC E8 80
 (075.040001)  can0  RX - -  109   [7]  56 81 EE 60 DE 34 7E
 (075.048907)  can0  RX - -  109   [8]  0F 10 5E 0B 8E AC EF AA
 (075.049064)  can0  RX - -  109   [7]  16 81 F3 47 C5 C2 7E
 (075.059138)  can0  RX - -  109   [8]  0E 10 55 81 51 81 F5 26
 (075.059275)  can0  RX - -  109   [6]  83 F8 33 89 E6 7E
 (075.339390)  can0  RX - -  109   [8]  0F 10 5E 0A 8E AE C3 DD
 (075.339507)  can0  RX - -  109   [7]  56 81 EE 59 E4 9E 7E
 (075.349626)  can0  RX - -  109   [8]  0F 10 5E 0B 8E AE CB 87
 (075.349751)  can0  RX - -  109   [7]  16 81 F3 47 7B 50 7E
 (075.639891)  can0  RX - -  109   [8]  0F 10 5E 0A 8E B0 9F BA
 (075.640012)  can0  RX - -  109   [7]  56 81 EE 5E 43 33 7E
 (075.648876)  can0  RX - -  109   [8]  0F 10 5E 0B 8E B0 A6 E4
 (075.649031)  can0  RX - -  109   [7]  16 81 F3 49 AF D7 7E
 (075.832883)  can0  TX - -  108   [6]  06 10 05 2D D6 7E
 (075.833014)  can0  RX - -  109   [8]  0B 11 57 8E AF D6 B1 7B
 (075.833145)  can0  RX - -  109   [8]  E1 51 7E 05 11 8F 08 7E
 (075.939506)  can0  RX - -  109   [8]  0F 11 5E 0A 8E B1 FB 97
 (075.939619)  can0  RX - -  109   [7]  56 81 EE 61 CB FB 7E
 (075.949741)  can0  RX - -  109   [8]  0F 11 5E 0B 8E B2 82 C1
 (075.949865)  can0  RX - -  109   [7]  16 81 F3 48 0F 7D 7E
 (076.240009)  can0  RX - -  109   [8]  0F 11 5E 0A 8E B3 D6 F4
 (076.240120)  can0  RX - -  109   [7]  56 81 EE 5F 28 7D 7E
 (076.248998)  can0  RX - -  109   [8]  0F 11 5E 0B 8E B3 DE 9E
 (076.249121)  can0  RX - -  109   [7]  16 81 F3 47 06 54 7E
 (076.539265)  can0  RX - -  109   [8]  0F 11 5E 0A 8E B5 B2 D1
 (076.539393)  can0  RX - -  109   [7]  56 81 EE 63 5A 87 7E
 (076.549514)  can0  RX - -  109   [8]  0F 11 5E 0B 8E B5 B9 FB
 (076.549632)  can0  RX - -  109   [7]  16 81 F3 47 42 1E 7E
 (076.817263)  can0  TX - -  108   [6]  06 11 05 34 0E 7E
 (076.817370)  can0  RX - -  109   [8]  0B 12 57 8E B5 A7 C7 13
 (076.817502)  can0  RX - -  109   [8]  C7 6E 7E 05 12 BD 93 7E
 (076.838867)  can0  RX - -  109   [8]  0F 12 5E 0A 8E B7 8E AE
 (076.838987)  can0  RX - -  109   [7]  56 81 EE 5A B6 E6 7E
 (076.849122)  can0  RX - -  109   [8]  0F 12 5E 0B 8E B7 95 D8
 (076.849265)  can0  RX - -  109   [7]  16 81 F3 46 53 56 7E
 (077.139382)  can0  RX - -  109   [8]  0F 12 5E 0A 8E B8 EA 8B
 (077.139496)  can0  RX - -  109   [7]  56 81 EE 61 F1 9A 7E
 (077.149618)  can0  RX - -  109   [8]  0F 12 5E 0B 8E B8 F1 B5
 (077.149835)  can0  RX - -  109   [7]  16 81 F3 48 E9 06 7E
 (077.438757)  can0  RX - -  109   [8]  0F 12 5E 0A 8E BA C5 E8
 (077.438870)  can0  RX - -  109   [7]  56 81 EE 5A 4D E7 7E
 (077.448999)  can0  RX - -  109   [8]  0F 12 5E 0B 8E BA CD 92
 (077.449129)  can0  RX - -  109   [7]  16 81 F3 48 78 D4 7E
 (077.739252)  can0  RX - -  109   [8]  0F 12 5E 0A 8E BC A1 C5
 (077.739382)  can0  RX - -  109   [7]  56 81 EE 5C FB E4 7E
 (077.749502)  can0  RX - -  109   [8]  0F 12 5E 0B 8E BC A8 EF
 (077.749629)  can0  RX - -  109   [7]  16 81 F3 48 DA A8 7E
 (077.802253)  can0  TX - -  108   [6]  06 12 05 1E 66 7E
 (077.802436)  can0  RX - -  109   [8]  0B 13 57 8E BA F9 80 4C
 (077.802527)  can0  RX - -  109   [8]  D8 A6 7E 05 13 AC 1A 7E
 (078.038869)  can0  RX - -  109   [8]  0F 13 5E 0A 8E BD FD A2
 (078.039024)  can0  RX - -  109   [7]  56 81 EE 5C D1 5A 7E
 (078.049124)  can0  RX - -  109   [8]  0F 13 5E 0B 8E BE 84 CC
 (078.049245)  can0  RX - -  109   [7]  16 81 F3 49 60 C2 7E
 (078.339387)  can0  RX - -  109   [8]  0F 13 5E 0A 8E BF D8 FF
 (078.339487)  can0  RX - -  109   [7]  56 81 EE 59 29 BD 7E
 (078.349615)  can0  RX - -  109   [8]  0F 13 5E 0B 8E BF E0 A9
 (078.349745)  can0  RX - -  109   [7]  16 81 F3 48 FE 64 7E
 (078.639881)  can0  RX - -  109   [8]  0F 13 5E 0A 8E C1 B4 DC
 (078.640001)  can0  RX - -  109   [7]  56 81 EE 5E 01 77 7E
 (078.648873)  can0  RX - -  109   [8]  0F 13 5E 0B 8E C1 BC 86
 (078.648999)  can0  RX - -  109   [7]  16 81 F3 48 12 F1 7E
 (078.786621)  can0  TX - -  108   [6]  06 13 05 07 BE 7E
 (078.786767)  can0  RX - -  109   [8]  0B 14 57 8E C0 CA A8 77
 (078.786878)  can0  RX - -  109   [8]  92 3C 7E 05 14 D8 A5 7E
 (078.939501)  can0  RX - -  109   [8]  0F 14 5E 0A 8E C3 90 B9
 (078.939631)  can0  RX - -  109   [7]  56 81 EE 5C A7 13 7E
 (078.949737)  can0  RX - -  109   [8]  0F 14 5E 0B 8E C3 97 E3
 (078.949865)  can0  RX - -  109   [7]  16 81 F3 48 AA 0E 7E
 (079.238742)  can0  RX - -  109   [8]  0F 14 5E 0A 8E C4 EC 96
 (079.238868)  can0  RX - -  109   [7]  56 81 EE 59 C9 3E 7E
 (079.248990)  can0  RX - -  109   [8]  0F 14 5E 0B 8E C4 F3 C0
 (079.249107)  can0  RX - -  109   [7]  16 81 F3 45 5C B3 7E
 (079.539270)  can0  RX - -  109   [8]  0F 14 5E 0A 8E C6 C7 F3
 (079.539380)  can0  RX - -  109   [7]  56 81 EE 5B F2 35 7E
 (079.549492)  can0  RX - -  109   [8]  0F 14 5E 0B 8E C6 CF 9D
 (079.549621)  can0  RX - -  109   [7]  16 81 F3 48 4F DF 7E
 (079.772251)  can0  TX - -  108   [6]  06 14 05 4A B6 7E
 (079.772390)  can0  RX - -  109   [8]  0B 15 57 8E C6 9C 8E 37
 (079.772500)  can0  RX - -  109   [8]  26 AE 7E 05 15 C9 2C 7E
 (079.838882)  can0  RX - -  109   [8]  0F 15 5E 0A 8E C8 A3 D0
 (079.839103)  can0  RX - -  109   [7]  56 81 EE 5D AE F3 7E
 (079.849129)  can0  RX - -  109   [8]  0F 15 5E 0B 8E C8 AA FA
 (079.849262)  can0  RX - -  109   [7]  16 81 F3 4C D8 12 7E
 (080.059366)  can0  RX - -  109   [8]  0E 15 55 81 49 81 E9 39
 (080.059498)  can0  RX - -  109   [6]  83 D5 5F F6 71 7E
 (080.139613)  can0  RX - -  109   [8]  0F 15 5E 0A 8E C9 FF AD
 (080.139754)  can0  RX - -  109   [7]  56 81 EE 5C 38 BD 7E
 (080.149867)  can0  RX - -  109   [8]  0F 15 5E 0B 8E CA 86 D7
 (080.149982)  can0  RX - -  109   [7]  16 81 F3 48 01 FC 7E
 (080.438880)  can0  RX - -  109   [8]  0F 15 5E 0A 8E CB DB 8A
 (080.438988)  can0  RX - -  109   [7]  56 81 EE 54 46 CF 7E
 (080.449107)  can0  RX - -  109   [8]  0F 15 5E 0B 8E CB E2 B4
 (080.449231)  can0  RX - -  109   [7]  16 81 F3 4A 96 59 7E
 (080.739366)  can0  RX - -  109   [8]  0F 15 5E 0A 8E CD B6 E7
 (080.739481)  can0  RX - -  109   [7]  56 81 EE 5A 98 D5 7E
 (080.749622)  can0  RX - -  109   [8]  0F 15 5E 0B 8E CD BE 91
 (080.749757)  can0  RX - -  109   [7]  16 81 F3 48 DA D6 7E
 (080.756116)  can0  TX - -  108   [6]  06 15 05 53 6E 7E
 (080.757495)  can0  RX - -  109   [8]  0B 16 57 8E CB ED 99 42
 (080.757696)  can0  RX - -  109   [8]  23 F8 7E 05 16 FB B7 7E
 (081.038997)  can0  RX - -  109   [8]  0F 16 5E 0A 8E CF 92 C4
 (081.039125)  can0  RX - -  109   [7]  56 81 EE 5E FF 68 7E
 (081.049235)  can0  RX - -  109   [8]  0F 16 5E 0B 8E CF 99 EE
 (081.049465)  can0  RX - -  109   [7]  16 81 F3 48 F5 60 7E
 (081.339495)  can0  RX - -  109   [8]  0F 16 5E 0A 8E D0 EE A1
 (081.339694)  can0  RX - -  109   [7]  56 81 EE 60 F8 BA 7E
 (081.349738)  can0  RX - -  109   [8]  0F 16 5E 0B 8E D0 F5 CB
 (081.349884)  can0  RX - -  109   [7]  16 81 F3 4A 8A CF 7E
 (081.638749)  can0  RX - -  109   [8]  0F 16 5E 0A 8E D2 C9 FE
 (081.638884)  can0  RX - -  109   [7]  56 81 EE 5C B2 C1 7E
 (081.648999)  can0  RX - -  109   [8]  0F 16 5E 0B 8E D2 D1 A8
 (081.649205)  can0  RX - -  109   [7]  16 81 F3 47 4F 22 7E
 (081.741735)  can0  TX - -  108   [6]  06 16 05 79 06 7E
 (081.741861)  can0  RX - -  109   [8]  0B 17 57 8E D1 BE CD 1A
 (081.742040)  can0  RX - -  109   [8]  A5 FF 7E 05 17 EA 3E 7E
 (081.939621)  can0  RX - -  109   [8]  0F 17 5E 0A 8E D4 A5 DB
 (081.939727)  can0  RX - -  109   [7]  56 81 EE 5C 4F 1D 7E
 (081.948604)  can0  RX - -  109   [8]  0F 17 5E 0B 8E D4 AD 85
 (081.948733)  can0  RX - -  109   [7]  16 81 F3 46 BB E7 7E
 (082.238867)  can0  RX - -  109   [8]  0F 17 5E 0A 8E D6 81 B8
 (082.238977)  can0  RX - -  109   [7]  56 81 EE 5D 40 9C 7E
 (082.249111)  can0  RX - -  109   [8]  0F 17 5E 0B 8E D6 88 E2
 (082.249342)  can0  RX - -  109   [7]  16 81 F3 49 74 23 7E
 (082.539376)  can0  RX - -  109   [8]  0F 17 5E 0A 8E D7 DD 95
 (082.539477)  can0  RX - -  109   [7]  56 81 EE 52 4A CE 7E
 (082.549617)  can0  RX - -  109   [8]  0F 17 5E 0B 8E D7 E4 BF
 (082.549736)  can0  RX - -  109   [7]  16 81 F3 49 54 A5 7E
 (082.726102)  can0  TX - -  108   [6]  06 17 05 60 DE 7E
 (082.726278)  can0  RX - -  109   [8]  0B 18 57 8E D7 8F D0 59
 (082.726354)  can0  RX - -  109   [8]  7E 95 7E 05 18 12 C9 7E
 (082.838996)  can0  RX - -  109   [8]  0F 18 5E 0A 8E D9 B8 F2
 (082.839205)  can0  RX - -  109   [7]  56 81 EE 5F 09 1F 7E
 (082.849242)  can0  RX - -  109   [8]  0F 18 5E 0B 8E D9 C0 9C
 (082.849374)  can0  RX - -  109   [7]  16 81 F3 47 CF 27 7E
 (083.139487)  can0  RX - -  109   [8]  0F 18 5E 0A 8E DB 94 CF
 (083.139612)  can0  RX - -  109   [7]  56 81 EE 57 AE DD 7E
 (083.149729)  can0  RX - -  109   [8]  0F 18 5E 0B 8E DB 9B F9
 (083.149863)  can0  RX - -  109   [7]  16 81 F3 47 12 3F 7E
 (083.438756)  can0  RX - -  109   [8]  0F 18 5E 0A 8E DC F0 AC
 (083.439028)  can0  RX - -  109   [7]  56 81 EE 60 07 9B 7E
 (083.448979)  can0  RX - -  109   [8]  0F 18 5E 0B 8E DC F7 D6
 (083.449122)  can0  RX - -  109   [7]  16 81 F3 46 78 86 7E
 (083.710475)  can0  TX - -  108   [6]  06 18 05 E3 16 7E
 (083.710594)  can0  RX - -  109   [8]  0B 19 57 8E DC E0 E0 2C
 (083.710732)  can0  RX - -  109   [8]  FC 57 7E 05 19 03 40 7E
 (083.739594)  can0  RX - -  109   [8]  0F 19 5E 0A 8E DE CC 89
 (083.739719)  can0  RX - -  109   [7]  56 81 EE 5B 5A 00 7E
 (083.748590)  can0  RX - -  109   [8]  0F 19 5E 0B 8E DE D3 B3
 (083.748714)  can0  RX - -  109   [7]  16 81 F3 48 E1 F9 7E
 (084.038869)  can0  RX - -  109   [8]  0F 19 5E 0A 8E E0 A7 E6
 (084.038997)  can0  RX - -  109   [7]  56 81 EE 5F 2D 94 7E
 (084.049107)  can0  RX - -  109   [8]  0F 19 5E 0B 8E E0 AF 90
 (084.049225)  can0  RX - -  109   [7]  16 81 F3 49 29 B3 7E
 (084.339369)  can0  RX - -  109   [8]  0F 19 5E 0A 8E E2 83 C3
 (084.339477)  can0  RX - -  109   [7]  56 81 EE 60 00 52 7E
 (084.349608)  can0  RX - -  109   [8]  0F 19 5E 0B 8E E2 8A ED
 (084.349727)  can0  RX - -  109   [7]  16 81 F3 47 0F 16 7E
 (084.638618)  can0  RX - -  109   [8]  0F 19 5E 0A 8E E3 DF A0
 (084.638842)  can0  RX - -  109   [7]  56 81 EE 5F 9B 19 7E
 (084.648849)  can0  RX - -  109   [8]  0F 19 5E 0B 8E E3 E6 CA
 (084.649024)  can0  RX - -  109   [7]  16 81 F3 46 67 42 7E
 (084.695352)  can0  TX - -  108   [6]  06 19 05 FA CE 7E
 (084.695471)  can0  RX - -  109   [8]  0B 1A 57 8E E2 B1 D4 5F
 (084.695638)  can0  RX - -  109   [8]  FF 68 7E 05 1A 31 DB 7E
 (084.939493)  can0  RX - -  109   [8]  0F 1A 5E 0A 8E E5 BA FD
 (084.939616)  can0  RX - -  109   [7]  56 81 EE 60 6E 33 7E
 (084.949721)  can0  RX - -  109   [8]  0F 1A 5E 0B 8E E5 C2 A7
 (084.949846)  can0  RX - -  109   [7]  16 81 F3 47 98 BE 7E
 (085.158738)  can0  RX - -  109   [8]  0E 1A 55 81 52 81 F5 7B
 (085.158850)  can0  RX - -  109   [6]  83 EB 0F 0A 60 7E
 (085.238985)  can0  RX - -  109   [8]  0F 1A 5E 0A 8E E7 96 DA
 (085.239111)  can0  RX - -  109   [7]  56 81 EE 62 9E 43 7E
 (085.249220)  can0  RX - -  109   [8]  0F 1A 5E 0B 8E E7 9E 84
 (085.249358)  can0  RX - -  109   [7]  16 81 F3 47 A3 CD 7E
 (085.539474)  can0  RX - -  109   [8]  0F 1A 5E 0A 8E E8 F2 B7
 (085.539609)  can0  RX - -  109   [7]  56 81 EE 55 88 51 7E
 (085.549720)  can0  RX - -  109   [8]  0F 1A 5E 0B 8E E8 F9 E1
 (085.549888)  can0  RX - -  109   [7]  16 81 F3 47 A6 BE 7E
 (085.678708)  can0  TX - -  108   [6]  06 1A 05 D0 A6 7E
 (085.678843)  can0  RX - -  109   [8]  0B 1B 57 8E E8 82 C2 08
 (085.679025)  can0  RX - -  109   [8]  32 A2 7E 05 1B 20 52 7E
 (085.839129)  can0  RX - -  109   [8]  0F 1B 5E 0A 8E EA CE 94
 (085.839253)  can0  RX - -  109   [7]  56 81 EE 5D ED 4A 7E
 (085.849372)  can0  RX - -  109   [8]  0F 1B 5E 0B 8E EA D5 BE
 (085.849475)  can0  RX - -  109   [7]  16 81 F3 48 97 69 7E
 (086.139621)  can0  RX - -  109   [8]  0F 1B 5E 0A 8E EC A9 F1
 (086.139722)  can0  RX - -  109   [7]  56 81 EE 5C B8 89 7E
 (086.148608)  can0  RX - -  109   [8]  0F 1B 5E 0B 8E EC B1 9B
 (086.148741)  can0  RX - -  109   [7]  16 81 F3 48 1E 7C 7E
 (086.438857)  can0  RX - -  109   [8]  0F 1B 5E 0A 8E EE 85 CE
 (086.438965)  can0  RX - -  109   [7]  56 81 EE 5C 85 8B 7E
 (086.449090)  can0  RX - -  109   [8]  0F 1B 5E 0B 8E EE 8C F8
 (086.449224)  can0  RX - -  109   [7]  16 81 F3 47 9F 40 7E
 (086.664342)  can0  TX - -  108   [6]  06 1B 05 C9 7E 7E
 (086.664495)  can0  RX - -  109   [8]  0B 1C 57 8E ED D3 EC 16
 (086.664600)  can0  RX - -  109   [8]  02 0E 7E 05 1C 54 ED 7E
 (086.738469)  can0  RX - -  109   [8]  0F 1C 5E 0A 8E EF E1 AB
 (086.738596)  can0  RX - -  109   [7]  56 81 EE 58 EC 66 7E
 (086.748710)  can0  RX - -  109   [8]  0F 1C 5E 0B 8E EF E8 D5
 (086.748852)  can0  RX - -  109   [7]  16 81 F3 46 3A 02 7E
 (087.038985)  can0  RX - -  109   [8]  0F 1C 5E 0A 8E F1 BD 88
 (087.039104)  can0  RX - -  109   [7]  56 81 EE 5D 84 EB 7E
 (087.049232)  can0  RX - -  109   [8]  0F 1C 5E 0B 8E F1 C4 B2
 (087.049342)  can0  RX - -  109   [7]  16 81 F3 46 2C 11 7E
 (087.339504)  can0  RX - -  109   [8]  0F 1C 5E 0A 8E F3 98 E5
 (087.339597)  can0  RX - -  109   [7]  56 81 EE 5D FF 70 7E
 (087.348485)  can0  RX - -  109   [8]  0F 1C 5E 0B 8E F3 A0 8F
 (087.348593)  can0  RX - -  109   [7]  16 81 F3 47 35 9B 7E
 (087.638713)  can0  RX - -  109   [8]  0F 1C 5E 0A 8E F4 F4 C2
 (087.638884)  can0  RX - -  109   [7]  56 81 EE 5A AA DF 7E
 (087.647701)  can0  TX - -  108   [6]  06 1C 05 84 76 7E
 (087.647817)  can0  RX - -  109   [8]  0B 1D 57 8E F3 A4 C3 34
 (087.647947)  can0  RX - -  109   [8]  5E 0E 7E 05 1D 45 64 7E
 (087.649327)  can0  RX - -  109   [8]  0F 1D 5E 0B 8E F4 FB EC
 (087.649437)  can0  RX - -  109   [7]  16 81 F3 48 8E DE 7E
 (087.939565)  can0  RX - -  109   [8]  0F 1D 5E 0A 8E F6 D0 9F
 (087.939685)  can0  RX - -  109   [7]  56 81 EE 60 CA F6 7E
 (087.948556)  can0  RX - -  109   [8]  0F 1D 5E 0B 8E F6 D7 C9
 (087.948679)  can0  RX - -  109   [7]  16 81 F3 47 B3 C3 7E
 (088.238825)  can0  RX - -  109   [8]  0F 1D 5E 0A 8E F8 AB FC
 (088.238945)  can0  RX - -  109   [7]  56 81 EE 5F D1 F8 7E
 (088.249083)  can0  RX - -  109   [8]  0F 1D 5E 0B 8E F8 B3 A6
 (088.249197)  can0  RX - -  109   [7]  16 81 F3 46 78 39 7E
 (088.539312)  can0  RX - -  109   [8]  0F 1D 5E 0A 8E FA 87 D9
 (088.539438)  can0  RX - -  109   [7]  56 81 EE 5C 26 89 7E
 (088.549557)  can0  RX - -  109   [8]  0F 1D 5E 0B 8E FA 8F 83
 (088.549677)  can0  RX - -  109   [7]  16 81 F3 47 EE EA 7E
 (088.632303)  can0  TX - -  108   [6]  06 1D 05 9D AE 7E
 (088.632429)  can0  RX - -  109   [8]  0B 1E 57 8E F8 F5 D0 48
 (088.632552)  can0  RX - -  109   [8]  E9 58 7E 05 1E 77 FF 7E
 (088.838933)  can0  RX - -  109   [8]  0F 1E 5E 0A 8E FB E3 B6
 (088.839054)  can0  RX - -  109   [7]  56 81 EE 55 86 7C 7E
 (088.849188)  can0  RX - -  109   [8]  0F 1E 5E 0B 8E FB EA E0
 (088.849309)  can0  RX - -  109   [7]  16 81 F3 48 58 32 7E
 (089.139440)  can0  RX - -  109   [8]  0F 1E 5E 0A 8E FD BF 93
 (089.139557)  can0  RX - -  109   [7]  56 81 EE 5D 65 A9 7E
 (089.148432)  can0  RX - -  109   [8]  0F 1E 5E 0B 8E FD C6 BD
 (089.148550)  can0  RX - -  109   [7]  16 81 F3 48 BD 7D 7E
 (089.438692)  can0  RX - -  109   [8]  0F 1E 5E 0A 8E FF 9A F0
 (089.438816)  can0  RX - -  109   [7]  56 81 EE 5A 0B 35 7E
 (089.448930)  can0  RX - -  109   [8]  0F 1E 5E 0B 8E FF A2 9A
 (089.449050)  can0  RX - -  109   [7]  16 81 F3 49 5C 1F 7E
 (089.616682)  can0  TX - -  108   [6]  06 1E 05 B7 C6 7E
 (089.616807)  can0  RX - -  109   [8]  0B 1F 57 8E FE C6 F6 1D
 (089.616939)  can0  RX - -  109   [8]  26 16 7E 05 1F 66 76 7E
 (089.739556)  can0  RX - -  109   [8]  0F 1F 5E 0A 8F 80 F6 CD
 (089.739674)  can0  RX - -  109   [7]  56 81 EE 60 57 9A 7E
 (089.748549)  can0  RX - -  109   [8]  0F 1F 5E 0B 8F 80 FD F7
 (089.748674)  can0  RX - -  109   [7]  16 81 F3 45 EA CA 7E
 (090.038808)  can0  RX - -  109   [8]  0F 1F 5E 0A 8F 82 D2 AA
 (090.038928)  can0  RX - -  109   [7]  56 81 EE 61 75 0B 7E
 (090.049050)  can0  RX - -  109   [8]  0F 1F 5E 0B 8F 82 D9 D4
 (090.049171)  can0  RX - -  109   [7]  16 81 F3 48 EE 05 7E
 (090.258059)  can0  RX - -  109   [8]  0E 1F 55 81 52 81 F7 17
 (090.258178)  can0  RX - -  109   [6]  83 F2 7C 8D 16 7E
 (090.339561)  can0  RX - -  109   [8]  0F 1F 5E 0A 8F 84 AE 87
 (090.339687)  can0  RX - -  109   [7]  56 81 EE 5D 3E 39 7E
 (090.348578)  can0  RX - -  109   [8]  0F 1F 5E 0B 8F 84 B5 B1
 (090.348702)  can0  RX - -  109   [7]  16 81 F3 46 6E 14 7E
 (090.601340)  can0  TX - -  108   [6]  06 1F 05 AE 1E 7E
 (090.602694)  can0  RX - -  109   [8]  0B 10 57 8F 84 98 A6 46
 (090.602803)  can0  RX - -  109   [8]  1E 14 7E 05 10 9E 81 7E
 (090.639175)  can0  RX - -  109   [8]  0F 10 5E 0A 8F 86 89 E4
 (090.639298)  can0  RX - -  109   [7]  56 81 EE 57 9F 5A 7E
 (090.649423)  can0  RX - -  109   [8]  0F 10 5E 0B 8F 86 91 8E
 (090.649544)  can0  RX - -  109   [7]  16 81 F3 4A A4 6E 7E
 (090.938429)  can0  RX - -  109   [8]  0F 10 5E 0A 8F 87 E5 C1
 (090.938548)  can0  RX - -  109   [7]  56 81 EE 62 96 21 7E
 (090.948675)  can0  RX - -  109   [8]  0F 10 5E 0B 8F 87 EC EB
 (090.948794)  can0  RX - -  109   [7]  16 81 F3 47 97 67 7E
 (091.238948)  can0  RX - -  109   [8]  0F 10 5E 0A 8F 89 C1 9E
 (091.239056)  can0  RX - -  109   [7]  56 81 EE 5D 53 26 7E
 (091.249186)  can0  RX - -  109   [8]  0F 10 5E 0B 8F 89 C8 C8
 (091.249293)  can0  RX - -  109   [7]  16 81 F3 47 F9 D7 7E
 (091.539427)  can0  RX - -  109   [8]  0F 10 5E 0A 8F 8B 9C FB
 (091.539543)  can0  RX - -  109   [7]  56 81 EE 5E A4 5F 7E
 (091.548428)  can0  RX - -  109   [8]  0F 10 5E 0B 8F 8B A4 A5
 (091.548544)  can0  RX - -  109   [7]  16 81 F3 48 5D 19 7E
 (091.586173)  can0  TX - -  108   [6]  06 10 05 2D D6 7E
 (091.587545)  can0  RX - -  109   [8]  0B 11 57 8F 89 E9 D2 6A
 (091.587670)  can0  RX - -  109   [8]  AC 80 7E 05 11 8F 08 7E
 (091.839049)  can0  RX - -  109   [8]  0F 11 5E 0A 8F 8C F8 D8
 (091.839174)  can0  RX - -  109   [7]  56 81 EE 61 15 E2 7E
 (091.849300)  can0  RX - -  109   [8]  0F 11 5E 0B 8F 8D 80 82
 (091.849423)  can0  RX - -  109   [7]  16 81 F3 45 4E 21 7E
 (092.138302)  can0  RX - -  109   [8]  0F 11 5E 0A 8F 8E D4 B5
 (092.138425)  can0  RX - -  109   [7]  56 81 EE 5E 82 7E 7E
 (092.148548)  can0  RX - -  109   [8]  0F 11 5E 0B 8F 8E DB DF
 (092.148665)  can0  RX - -  109   [7]  16 81 F3 46 B0 86 7E
 (092.438830)  can0  RX - -  109   [8]  0F 11 5E 0A 8F 90 B0 92
 (092.438949)  can0  RX - -  109   [7]  56 81 EE 54 D9 9C 7E
 (092.449076)  can0  RX - -  109   [8]  0F 11 5E 0B 8F 90 B7 BC
 (092.449252)  can0  RX - -  109   [7]  16 81 F3 4B 52 B1 7E
 (092.571826)  can0  TX - -  108   [6]  06 11 05 34 0E 7E
 (092.571979)  can0  RX - -  109   [8]  0B 12 57 8F 8F BB 9E 45
 (092.572108)  can0  RX - -  109   [8]  4F 1C 7E 05 12 BD 93 7E
 (092.738456)  can0  RX - -  109   [8]  0F 12 5E 0A 8F 92 8B EF
 (092.738587)  can0  RX - -  109   [7]  56 81 EE 5E 3C BC 7E
 (092.748702)  can0  RX - -  109   [8]  0F 12 5E 0B 8F 92 93 99
 (092.748827)  can0  RX - -  109   [7]  16 81 F3 47 82 DC 7E
 (093.038955)  can0  RX - -  109   [8]  0F 12 5E 0A 8F 93 E7 CC
 (093.039080)  can0  RX - -  109   [7]  56 81 EE 5D 5A EA 7E
 (093.049198)  can0  RX - -  109   [8]  0F 12 5E 0B 8F 93 EE F6
 (093.049315)  can0  RX - -  109   [7]  16 81 F3 41 43 AE 7E
 (093.339456)  can0  RX - -  109   [8]  0F 12 5E 0A 8F 95 C3 A9
 (093.339567)  can0  RX - -  109   [7]  56 81 EE 5C 01 85 7E
 (093.348445)  can0  RX - -  109   [8]  0F 12 5E 0B 8F 95 CA D3
 (093.348570)  can0  RX - -  109   [7]  16 81 F3 46 BC D5 7E
 (093.557467)  can0  TX - -  108   [6]  06 12 05 1E 66 7E
 (093.557670)  can0  RX - -  109   [8]  0B 13 57 8F 95 8C E8 28
 (093.557706)  can0  RX - -  109   [8]  D9 9A 7E 05 13 AC 1A 7E
 (093.639080)  can0  RX - -  109   [8]  0F 13 5E 0A 8F 97 9F 86
 (093.639297)  can0  RX - -  109   [7]  56 81 EE 58 5E 73 7E
 (093.649321)  can0  RX - -  109   [8]  0F 13 5E 0B 8F 97 A6 B0
 (093.649445)  can0  RX - -  109   [7]  16 81 F3 46 D4 C5 7E
 (093.938339)  can0  RX - -  109   [8]  0F 13 5E 0A 8F 98 FA E3
 (093.938453)  can0  RX - -  109   [7]  56 81 EE 5D 04 FB 7E
 (093.948582)  can0  RX - -  109   [8]  0F 13 5E 0B 8F 99 82 8D
 (093.948713)  can0  RX - -  109   [7]  16 81 F3 48 86 F3 7E
 (094.238830)  can0  RX - -  109   [8]  0F 13 5E 0A 8F 9A D6 C0
 (094.238965)  can0  RX - -  109   [7]  56 81 EE 58 AD 24 7E
 (094.249075)  can0  RX - -  109   [8]  0F 13 5E 0B 8F 9A DD EA
 (094.249195)  can0  RX - -  109   [7]  16 81 F3 47 3A ED 7E
 (094.539328)  can0  RX - -  109   [8]  0F 13 5E 0A 8F 9C B2 9D
 (094.539441)  can0  RX - -  109   [7]  56 81 EE 58 6B E2 7E
 (094.542068)  can0  TX - -  108   [6]  06 13 05 07 BE 7E
 (094.542195)  can0  RX - -  109   [8]  0B 14 57 8F 9A DE A2 1F
 (094.542327)  can0  RX - -  109   [8]  64 0A 7E 05 14 D8 A5 7E
 (094.548685)  can0  RX - -  109   [8]  0F 14 5E 0B 8F 9C B9 C7
 (094.548842)  can0  RX - -  109   [7]  16 81 F3 48 B1 C9 7E
 (094.838948)  can0  RX - -  109   [8]  0F 14 5E 0A 8F 9E 8D FA
 (094.839278)  can0  RX - -  109   [7]  56 81 EE 59 86 00 7E
 (094.849205)  can0  RX - -  109   [8]  0F 14 5E 0B 8F 9E 95 A4
 (094.849342)  can0  RX - -  109   [7]  16 81 F3 46 67 E7 7E
 (095.138214)  can0  RX - -  109   [8]  0F 14 5E 0A 8F 9F E9 D7
 (095.138344)  can0  RX - -  109   [7]  56 81 EE 60 3E 6F 7E
 (095.148456)  can0  RX - -  109   [8]  0F 14 5E 0B 8F 9F F1 81
 (095.148567)  can0  RX - -  109   [7]  16 81 F3 45 1B 71 7E
 (095.358712)  can0  RX - -  109   [8]  0E 14 55 81 52 81 F9 2A
 (095.358821)  can0  RX - -  109   [6]  83 FB 4F E2 93 7E
 (095.438957)  can0  RX - -  109   [8]  0F 14 5E 0A 8F A1 C5 B4
 (095.439088)  can0  RX - -  109   [7]  56 81 EE 59 CA AD 7E
