 (000.000000)  can0  RX - -  109   [8]  0F 16 5E 0A 8C D2 B1 A0
 (000.000109)  can0  RX - -  109   [7]  24 81 EF 4D 32 CE 7E
 (000.010247)  can0  RX - -  109   [8]  0F 16 5E 0B 8C D2 B8 C9
 (000.010363)  can0  RX - -  109   [7]  64 81 F3 4D 80 11 7E
 (000.157980)  can0  TX - -  108   [6]  06 16 05 79 06 7E
 (000.158113)  can0  RX - -  109   [8]  0B 17 57 8C D1 CD FD 51
 (000.158241)  can0  RX - -  109   [8]  96 BE 7E 05 17 EA 3E 7E
 (000.300878)  can0  RX - -  109   [8]  0F 17 5E 0A 8C D4 8C FD
 (000.301000)  can0  RX - -  109   [7]  24 81 EF 4B A1 BD 7E
 (000.309869)  can0  RX - -  109   [8]  0F 17 5E 0B 8C D4 94 A6
 (000.309994)  can0  RX - -  109   [7]  64 81 F3 48 A5 3B 7E
 (000.600145)  can0  RX - -  109   [8]  0F 17 5E 0A 8C D5 E8 DA
 (000.600285)  can0  RX - -  109   [7]  24 81 EF 4C 8D 87 7E
 (000.610405)  can0  RX - -  109   [8]  0F 17 5E 0B 8C D5 F0 83
 (000.610502)  can0  RX - -  109   [7]  64 81 F3 4B D9 AD 7E
 (000.900629)  can0  RX - -  109   [8]  0F 17 5E 0A 8C D7 C4 B7
 (000.900742)  can0  RX - -  109   [7]  24 81 EF 51 18 0B 7E
 (000.910883)  can0  RX - -  109   [8]  0F 17 5E 0B 8C D7 CB E0
 (000.911011)  can0  RX - -  109   [7]  64 81 F3 4A A9 15 7E
 (001.142362)  can0  TX - -  108   [6]  06 17 05 60 DE 7E
 (001.142497)  can0  RX - -  109   [8]  0B 18 57 8C D7 9F A0 40
 (001.142651)  can0  RX - -  109   [8]  90 0C 7E 05 18 12 C9 7E
 (001.200241)  can0  RX - -  109   [8]  0F 18 5E 0A 8C D9 A0 94
 (001.200416)  can0  RX - -  109   [7]  24 81 EF 43 5B B5 7E
 (001.210493)  can0  RX - -  109   [8]  0F 18 5E 0B 8C D9 A7 BD
 (001.210614)  can0  RX - -  109   [7]  64 81 F3 4E CA 0F 7E
 (001.500755)  can0  RX - -  109   [8]  0F 18 5E 0A 8C DA FB F1
 (001.500872)  can0  RX - -  109   [7]  24 81 EF 4C E1 8F 7E
 (001.510992)  can0  RX - -  109   [8]  0F 18 5E 0B 8C DB 83 9A
 (001.511134)  can0  RX - -  109   [7]  64 81 F3 4C 1B 27 7E
 (001.799999)  can0  RX - -  109   [8]  0F 18 5E 0A 8C DC D7 CE
 (001.800110)  can0  RX - -  109   [7]  24 81 EF 4C B3 FB 7E
 (001.810250)  can0  RX - -  109   [8]  0F 18 5E 0B 8C DC DE F7
 (001.810385)  can0  RX - -  109   [7]  64 81 F3 4D 65 CF 7E
 (002.100496)  can0  RX - -  109   [8]  0F 18 5E 0A 8C DE B3 AB
 (002.100614)  can0  RX - -  109   [7]  24 81 EF 54 08 73 7E
 (002.110765)  can0  RX - -  109   [8]  0F 18 5E 0B 8C DE BA D4
 (002.110999)  can0  RX - -  109   [7]  64 81 F3 4D B8 34 7E
 (002.127234)  can0  TX - -  108   [6]  06 18 05 E3 16 7E
 (002.127357)  can0  RX - -  109   [8]  0B 19 57 8C DC F0 BB 78
 (002.127488)  can0  RX - -  109   [8]  4C B4 7E 05 19 03 40 7E
 (002.400136)  can0  RX - -  109   [8]  0F 19 5E 0A 8C E0 8F 88
 (002.400258)  can0  RX - -  109   [7]  24 81 EF 4F 28 A2 7E
 (002.410361)  can0  RX - -  109   [8]  0F 19 5E 0B 8C E0 96 B1
 (002.410501)  can0  RX - -  109   [7]  64 81 F3 4D 8E BD 7E
 (002.700620)  can0  RX - -  109   [8]  0F 19 5E 0A 8C E1 EA E5
 (002.700764)  can0  RX - -  109   [7]  24 81 EF 4E E8 0F 7E
 (002.710872)  can0  RX - -  109   [8]  0F 19 5E 0B 8C E1 F2 8E
 (002.711016)  can0  RX - -  109   [7]  64 81 F3 4D 38 58 7E
 (002.999995)  can0  RX - -  109   [8]  0F 19 5E 0A 8C E3 C6 C2
 (003.000104)  can0  RX - -  109   [7]  24 81 EF 4D 09 F6 7E
 (003.010235)  can0  RX - -  109   [8]  0F 19 5E 0B 8C E3 CD EB
 (003.010371)  can0  RX - -  109   [7]  64 81 F3 4C 63 D4 7E
 (003.115524)  can0  TX - -  108   [6]  06 19 05 FA CE 7E
 (003.115619)  can0  RX - -  109   [8]  0B 1A 57 8C E2 C4 C2 03
 (003.115749)  can0  RX - -  109   [8]  09 2D 7E 05 1A 31 DB 7E
 (003.300885)  can0  RX - -  109   [8]  0F 1A 5E 0A 8C E5 A2 9F
 (003.301002)  can0  RX - -  109   [7]  24 81 EF 52 D9 F5 7E
 (003.309875)  can0  RX - -  109   [8]  0F 1A 5E 0B 8C E5 A9 C8
 (003.310092)  can0  RX - -  109   [7]  64 81 F3 4C 2F EA 7E
 (003.600131)  can0  RX - -  109   [8]  0F 1A 5E 0A 8C E6 FD FC
 (003.600262)  can0  RX - -  109   [7]  24 81 EF 4C 49 F3 7E
 (003.610388)  can0  RX - -  109   [8]  0F 1A 5E 0B 8C E7 85 A5
 (003.610530)  can0  RX - -  109   [7]  64 81 F3 4B 05 BD 7E
 (003.900627)  can0  RX - -  109   [8]  0F 1A 5E 0A 8C E8 D9 D9
 (003.900754)  can0  RX - -  109   [7]  24 81 EF 4F 2E 40 7E
 (003.910899)  can0  RX - -  109   [8]  0F 1A 5E 0B 8C E8 E1 82
 (003.911005)  can0  RX - -  109   [7]  64 81 F3 4C AF A6 7E
 (004.099860)  can0  TX - -  108   [6]  06 1A 05 D0 A6 7E
 (004.099991)  can0  RX - -  109   [8]  0B 1B 57 8C E8 95 C1 6F
 (004.100143)  can0  RX - -  109   [8]  10 6B 7E 05 1B 20 52 7E
 (004.100233)  can0  RX - -  109   [8]  0E 1B 55 81 52 81 FB 5F
 (004.100361)  can0  RX - -  109   [6]  84 82 56 4B 4C 7E
 (004.200486)  can0  RX - -  109   [8]  0F 1B 5E 0A 8C EA B5 B6
 (004.200614)  can0  RX - -  109   [7]  24 81 EF 46 AC A1 7E
 (004.210728)  can0  RX - -  109   [8]  0F 1B 5E 0B 8C EA BC DF
 (004.210851)  can0  RX - -  109   [7]  64 81 F3 4B C5 9B 7E
 (004.499769)  can0  RX - -  109   [8]  0F 1B 5E 0A 8C EC 91 93
 (004.499869)  can0  RX - -  109   [7]  24 81 EF 52 71 C0 7E
 (004.509998)  can0  RX - -  109   [8]  0F 1B 5E 0B 8C EC 98 BC
 (004.510106)  can0  RX - -  109   [7]  64 81 F3 4D D1 D3 7E
 (004.800241)  can0  RX - -  109   [8]  0F 1B 5E 0A 8C ED EC F0
 (004.800359)  can0  RX - -  109   [7]  24 81 EF 4A 3E 7D 7E
 (004.810503)  can0  RX - -  109   [8]  0F 1B 5E 0B 8C ED F4 99
 (004.810626)  can0  RX - -  109   [7]  64 81 F3 4B DB B0 7E
 (005.084500)  can0  TX - -  108   [6]  06 1B 05 C9 7E 7E
 (005.084642)  can0  RX - -  109   [8]  0B 1C 57 8C ED E6 D3 07
 (005.084738)  can0  RX - -  109   [8]  9F F7 7E 05 1C 54 ED 7E
 (005.099870)  can0  RX - -  109   [8]  0F 1C 5E 0A 8C EF C8 CD
 (005.100003)  can0  RX - -  109   [7]  24 81 EF 47 4F AC 7E
 (005.110121)  can0  RX - -  109   [8]  0F 1C 5E 0B 8C EF CF F6
 (005.110264)  can0  RX - -  109   [7]  64 81 F3 4C 19 E8 7E
 (005.400389)  can0  RX - -  109   [8]  0F 1C 5E 0A 8C F1 A4 AA
 (005.400515)  can0  RX - -  109   [7]  24 81 EF 4F D7 26 7E
 (005.410620)  can0  RX - -  109   [8]  0F 1C 5E 0B 8C F1 AB D3
 (005.410807)  can0  RX - -  109   [7]  64 81 F3 4C FB D8 7E
 (005.700865)  can0  RX - -  109   [8]  0F 1C 5E 0A 8C F3 80 87
 (005.701084)  can0  RX - -  109   [7]  24 81 EF 4B 2F 90 7E
 (005.709858)  can0  RX - -  109   [8]  0F 1C 5E 0B 8C F3 87 B0
 (005.709988)  can0  RX - -  109   [7]  64 81 F3 47 7A 5B 7E
 (006.000107)  can0  RX - -  109   [8]  0F 1C 5E 0A 8C F4 DB E4
 (006.000241)  can0  RX - -  109   [7]  24 81 EF 4D 5C 85 7E
 (006.010358)  can0  RX - -  109   [8]  0F 1C 5E 0B 8C F4 E3 8D
 (006.010471)  can0  RX - -  109   [7]  64 81 F3 4D 2D A1 7E
 (006.069352)  can0  TX - -  108   [6]  06 1C 05 84 76 7E
 (006.069478)  can0  RX - -  109   [8]  0B 1D 57 8C F3 B8 81 1D
 (006.069602)  can0  RX - -  109   [8]  A1 A5 7E 05 1D 45 64 7E
 (006.299741)  can0  RX - -  109   [8]  0F 1D 5E 0A 8C F6 B7 C1
 (006.299854)  can0  RX - -  109   [7]  24 81 EF 4E FC B4 7E
 (006.309983)  can0  RX - -  109   [8]  0F 1D 5E 0B 8C F6 BE EA
 (006.310101)  can0  RX - -  109   [7]  64 81 F3 4D AB 5A 7E
 (006.600243)  can0  RX - -  109   [8]  0F 1D 5E 0A 8C F8 93 9E
 (006.600355)  can0  RX - -  109   [7]  24 81 EF 4A B6 E3 7E
 (006.610494)  can0  RX - -  109   [8]  0F 1D 5E 0B 8C F8 9A C7
 (006.610627)  can0  RX - -  109   [7]  64 81 F3 4C B5 DB 7E
 (006.900755)  can0  RX - -  109   [8]  0F 1D 5E 0A 8C F9 EE FB
 (006.900867)  can0  RX - -  109   [7]  24 81 EF 45 A6 F8 7E
 (006.909904)  can0  RX - -  109   [8]  0F 1D 5E 0B 8C F9 F6 A4
 (006.910021)  can0  RX - -  109   [7]  64 81 F3 4B 54 8B 7E
 (007.053887)  can0  TX - -  108   [6]  06 1D 05 9D AE 7E
 (007.053983)  can0  RX - -  109   [8]  0B 1E 57 8C F9 89 8A 2F
 (007.054112)  can0  RX - -  109   [8]  FF 2E 7E 05 1E 77 FF 7E
 (007.200483)  can0  RX - -  109   [8]  0F 1E 5E 0A 8C FB CA D8
 (007.200604)  can0  RX - -  109   [7]  24 81 EF 52 E3 5F 7E
 (007.210726)  can0  RX - -  109   [8]  0F 1E 5E 0B 8C FB D2 81
 (007.210856)  can0  RX - -  109   [7]  64 81 F3 4C 3A 35 7E
 (007.499738)  can0  RX - -  109   [8]  0F 1E 5E 0A 8C FD A6 B5
 (007.499852)  can0  RX - -  109   [7]  24 81 EF 4C 29 EF 7E
 (007.509993)  can0  RX - -  109   [8]  0F 1E 5E 0B 8C FD AD DE
 (007.510123)  can0  RX - -  109   [7]  64 81 F3 4A E0 D8 7E
 (007.800245)  can0  RX - -  109   [8]  0F 1E 5E 0A 8C FF 82 92
 (007.800398)  can0  RX - -  109   [7]  24 81 EF 54 47 1C 7E
 (007.810490)  can0  RX - -  109   [8]  0F 1E 5E 0B 8C FF 89 BB
 (007.810627)  can0  RX - -  109   [7]  64 81 F3 4A C5 48 7E
 (008.038220)  can0  TX - -  108   [6]  06 1E 05 B7 C6 7E
 (008.039590)  can0  RX - -  109   [8]  0B 1F 57 8C FE DA BD 32
 (008.039713)  can0  RX - -  109   [8]  6B 93 7E 05 1F 66 76 7E
 (008.099869)  can0  RX - -  109   [8]  0F 1F 5E 0A 8D 80 DD EF
 (008.099979)  can0  RX - -  109   [7]  24 81 EF 52 EA D3 7E
 (008.110101)  can0  RX - -  109   [8]  0F 1F 5E 0B 8D 80 E5 98
 (008.110219)  can0  RX - -  109   [7]  64 81 F3 4B C3 4F 7E
 (008.400389)  can0  RX - -  109   [8]  0F 1F 5E 0A 8D 82 B9 CC
 (008.400557)  can0  RX - -  109   [7]  24 81 EF 50 14 3A 7E
 (008.410612)  can0  RX - -  109   [8]  0F 1F 5E 0B 8D 82 C0 F5
 (008.410729)  can0  RX - -  109   [7]  64 81 F3 4B B8 D4 7E
 (008.699635)  can0  RX - -  109   [8]  0F 1F 5E 0A 8D 84 95 A9
 (008.699844)  can0  RX - -  109   [7]  24 81 EF 4E 86 7B 7E
 (008.709865)  can0  RX - -  109   [8]  0F 1F 5E 0B 8D 84 9C D2
 (008.710013)  can0  RX - -  109   [7]  64 81 F3 4C B5 7E 7E
 (009.000094)  can0  RX - -  109   [8]  0F 1F 5E 0A 8D 85 F1 86
 (009.000220)  can0  RX - -  109   [7]  24 81 EF 4C A7 CC 7E
 (009.010337)  can0  RX - -  109   [8]  0F 1F 5E 0B 8D 85 F8 AF
 (009.010461)  can0  RX - -  109   [7]  64 81 F3 4A B1 07 7E
 (009.023080)  can0  TX - -  108   [6]  06 1F 05 AE 1E 7E
 (009.024457)  can0  RX - -  109   [8]  0B 10 57 8D 84 AB F0 5C
 (009.024579)  can0  RX - -  109   [8]  59 AA 7E 05 10 9E 81 7E
 (009.121023)  can0  RX - -  109   [8]  0E 10 55 81 54 81 F5 7C
 (009.121257)  can0  RX - -  109   [6]  83 EF 5B 47 2A 7E
 (009.300121)  can0  RX - -  109   [8]  0F 10 5E 0A 8D 87 CC E3
 (009.300254)  can0  RX - -  109   [7]  24 81 EF 4E DA C1 7E
 (009.310369)  can0  RX - -  109   [8]  0F 10 5E 0B 8D 87 D4 8C
 (009.310487)  can0  RX - -  109   [7]  64 81 F3 4A 53 39 7E
 (009.600613)  can0  RX - -  109   [8]  0F 10 5E 0A 8D 89 A8 C0
 (009.600733)  can0  RX - -  109   [7]  24 81 EF 4E B6 A0 7E
 (009.609604)  can0  RX - -  109   [8]  0F 10 5E 0B 8D 89 AF E9
 (009.609731)  can0  RX - -  109   [7]  64 81 F3 4F ED 76 7E
 (009.899912)  can0  RX - -  109   [8]  0F 10 5E 0A 8D 8B 84 9D
 (009.900008)  can0  RX - -  109   [7]  24 81 EF 4D 0E 02 7E
 (009.910123)  can0  RX - -  109   [8]  0F 10 5E 0B 8D 8B 8B C6
 (009.910217)  can0  RX - -  109   [7]  64 81 F3 49 20 5A 7E
 (010.009105)  can0  TX - -  108   [6]  06 10 05 2D D6 7E
 (010.009230)  can0  RX - -  109   [8]  0B 11 57 8D 89 FD B5 10
 (010.009361)  can0  RX - -  109   [8]  A8 7C 7E 05 11 8F 08 7E
 (010.200740)  can0  RX - -  109   [8]  0F 11 5E 0A 8D 8C DF FA
 (010.200843)  can0  RX - -  109   [7]  24 81 EF 55 FC 69 7E
 (010.209725)  can0  RX - -  109   [8]  0F 11 5E 0B 8D 8C E7 A3
 (010.209846)  can0  RX - -  109   [7]  64 81 F3 4B A0 63 7E
 (010.499974)  can0  RX - -  109   [8]  0F 11 5E 0A 8D 8E BB D7
 (010.500091)  can0  RX - -  109   [7]  24 81 EF 4B B9 D5 7E
 (010.510233)  can0  RX - -  109   [8]  0F 11 5E 0B 8D 8E C3 80
 (010.510356)  can0  RX - -  109   [7]  64 81 F3 4C 0B F6 7E
 (010.800479)  can0  RX - -  109   [8]  0F 11 5E 0A 8D 90 97 B4
 (010.800603)  can0  RX - -  109   [7]  24 81 EF 51 3D 0D 7E
 (010.810721)  can0  RX - -  109   [8]  0F 11 5E 0B 8D 90 9E DD
 (010.810865)  can0  RX - -  109   [7]  64 81 F3 4F 76 2D 7E
 (010.993465)  can0  TX - -  108   [6]  06 11 05 34 0E 7E
 (010.993602)  can0  RX - -  109   [8]  0B 12 57 8D 8F CE B8 1B
 (010.993797)  can0  RX - -  109   [8]  2C E9 7E 05 12 BD 93 7E
 (011.100116)  can0  RX - -  109   [8]  0F 12 5E 0A 8D 91 F3 91
 (011.100257)  can0  RX - -  109   [7]  24 81 EF 4C 46 D7 7E
 (011.110359)  can0  RX - -  109   [8]  0F 12 5E 0B 8D 91 FA BA
 (011.110487)  can0  RX - -  109   [7]  64 81 F3 4B 57 1D 7E
 (011.400641)  can0  RX - -  109   [8]  0F 12 5E 0A 8D 93 CE EE
 (011.400739)  can0  RX - -  109   [7]  24 81 EF 50 26 81 7E
 (011.409633)  can0  RX - -  109   [8]  0F 12 5E 0B 8D 93 D6 97
 (011.409743)  can0  RX - -  109   [7]  64 81 F3 4D AD E1 7E
 (011.699874)  can0  RX - -  109   [8]  0F 12 5E 0A 8D 95 AA CB
 (011.699989)  can0  RX - -  109   [7]  24 81 EF 52 8C 86 7E
 (011.710109)  can0  RX - -  109   [8]  0F 12 5E 0B 8D 95 B1 F4
 (011.710244)  can0  RX - -  109   [7]  64 81 F3 4C C3 BA 7E
 (011.977850)  can0  TX - -  108   [6]  06 12 05 1E 66 7E
 (011.977961)  can0  RX - -  109   [8]  0B 13 57 8D 95 9F CD 7D
 (011.978091)  can0  RX - -  109   [8]  FD 40 7E 05 13 AC 1A 7E
 (011.999457)  can0  RX - -  109   [8]  0F 13 5E 0A 8D 97 86 A8
 (011.999582)  can0  RX - -  109   [7]  24 81 EF 4F 2D 23 7E
 (012.009706)  can0  RX - -  109   [8]  0F 13 5E 0B 8D 97 8D D1
 (012.009832)  can0  RX - -  109   [7]  64 81 F3 4B 65 CE 7E
 (012.299985)  can0  RX - -  109   [8]  0F 13 5E 0A 8D 98 E2 85
 (012.300228)  can0  RX - -  109   [7]  24 81 EF 46 22 EE 7E
 (012.310233)  can0  RX - -  109   [8]  0F 13 5E 0B 8D 98 E9 AE
 (012.310359)  can0  RX - -  109   [7]  64 81 F3 4C E0 97 7E
 (012.600492)  can0  RX - -  109   [8]  0F 13 5E 0A 8D 9A BD E2
 (012.600615)  can0  RX - -  109   [7]  24 81 EF 4B 22 37 7E
 (012.609488)  can0  RX - -  109   [8]  0F 13 5E 0B 8D 9A C5 8B
 (012.609602)  can0  RX - -  109   [7]  64 81 F3 4E 06 6F 7E
 (012.899776)  can0  RX - -  109   [8]  0F 13 5E 0A 8D 9C 99 BF
 (012.899867)  can0  RX - -  109   [7]  24 81 EF 50 48 72 7E
 (012.910014)  can0  RX - -  109   [8]  0F 13 5E 0B 8D 9C A0 E8
 (012.910297)  can0  RX - -  109   [7]  64 81 F3 4B 26 46 7E
 (012.962837)  can0  TX - -  108   [6]  06 13 05 07 BE 7E
 (012.962983)  can0  RX - -  109   [8]  0B 14 57 8D 9A F0 EC 23
 (012.963105)  can0  RX - -  109   [8]  46 3B 7E 05 14 D8 A5 7E
 (013.199489)  can0  RX - -  109   [8]  0F 14 5E 0A 8D 9D F5 9C
 (013.199598)  can0  RX - -  109   [7]  24 81 EF 4E 45 A6 7E
 (013.209718)  can0  RX - -  109   [8]  0F 14 5E 0B 8D 9D FC C5
 (013.209842)  can0  RX - -  109   [7]  64 81 F3 4B 74 05 7E
 (013.499973)  can0  RX - -  109   [8]  0F 14 5E 0A 8D 9F D0 F9
 (013.500102)  can0  RX - -  109   [7]  24 81 EF 46 E8 55 7E
 (013.510215)  can0  RX - -  109   [8]  0F 14 5E 0B 8D 9F D8 A2
 (013.510356)  can0  RX - -  109   [7]  64 81 F3 4E 10 B0 7E
 (013.800483)  can0  RX - -  109   [8]  0F 14 5E 0A 8D A1 AC D6
 (013.800610)  can0  RX - -  109   [7]  24 81 EF 52 10 03 7E
 (013.809474)  can0  RX - -  109   [8]  0F 14 5E 0B 8D A1 B3 FF
 (013.809619)  can0  RX - -  109   [7]  64 81 F3 4E E3 59 7E
 (013.947213)  can0  TX - -  108   [6]  06 14 05 4A B6 7E
 (013.947461)  can0  RX - -  109   [8]  3B 91 7E 05 15 C9 2C 7E
 (013.947338)  can0  RX - -  109   [8]  0B 15 57 8D A0 C1 DF 20
 (014.100116)  can0  RX - -  109   [8]  0F 15 5E 0A 8D A3 88 B3
 (014.100237)  can0  RX - -  109   [7]  24 81 EF 4C 99 FD 7E
 (014.110337)  can0  RX - -  109   [8]  0F 15 5E 0B 8D A3 8F DC
 (014.110470)  can0  RX - -  109   [7]  64 81 F3 4B 5D A7 7E
 (014.120589)  can0  RX - -  109   [8]  0E 15 55 81 51 81 F5 67
 (014.120732)  can0  RX - -  109   [6]  83 EC 1E 17 47 7E
 (014.399623)  can0  RX - -  109   [8]  0F 15 5E 0A 8D A4 E4 90
 (014.399719)  can0  RX - -  109   [7]  24 81 EF 4F A7 66 7E
 (014.409915)  can0  RX - -  109   [8]  0F 15 5E 0B 8D A4 EB B9
 (014.409987)  can0  RX - -  109   [7]  64 81 F3 4F CC 61 7E
 (014.700113)  can0  RX - -  109   [8]  0F 15 5E 0A 8D A6 BF ED
 (014.700224)  can0  RX - -  109   [7]  24 81 EF 4D B7 0C 7E
 (014.710343)  can0  RX - -  109   [8]  0F 15 5E 0B 8D A6 C7 96
 (014.710473)  can0  RX - -  109   [7]  64 81 F3 4E 54 AA 7E
 (014.930745)  can0  TX - -  108   [6]  06 15 05 53 6E 7E
 (014.930915)  can0  RX - -  109   [8]  0B 16 57 8D A6 92 D6 26
 (014.930967)  can0  RX - -  109   [8]  06 CC 7E 05 16 FB B7 7E
 (014.999839)  can0  RX - -  109   [8]  0F 16 5E 0A 8D A8 9B CA
 (014.999963)  can0  RX - -  109   [7]  24 81 EF 50 C1 7B 7E
 (015.010084)  can0  RX - -  109   [8]  0F 16 5E 0B 8D A8 A2 F3
 (015.010211)  can0  RX - -  109   [7]  64 81 F3 4D 0A 72 7E
 (015.300357)  can0  RX - -  109   [8]  0F 16 5E 0A 8D A9 F7 A7
 (015.300474)  can0  RX - -  109   [7]  24 81 EF 4F DD 5A 7E
 (015.310592)  can0  RX - -  109   [8]  0F 16 5E 0B 8D A9 FE D0
 (015.310733)  can0  RX - -  109   [7]  64 81 F3 4C 88 E6 7E
 (015.599598)  can0  RX - -  109   [8]  0F 16 5E 0A 8D AB D3 84
 (015.599737)  can0  RX - -  109   [7]  24 81 EF 54 AC 22 7E
 (015.609857)  can0  RX - -  109   [8]  0F 16 5E 0B 8D AB DA AD
 (015.609975)  can0  RX - -  109   [7]  64 81 F3 4D 52 9F 7E
 (015.900158)  can0  RX - -  109   [8]  0F 16 5E 0A 8D AD AE E1
 (015.900260)  can0  RX - -  109   [7]  24 81 EF 52 E6 E0 7E
 (015.910462)  can0  RX - -  109   [8]  0F 16 5E 0B 8D AD B6 8A
 (015.910506)  can0  RX - -  109   [7]  64 81 F3 4E DE C1 7E
 (015.923115)  can0  TX - -  108   [6]  06 16 05 79 06 7E
 (015.923231)  can0  RX - -  109   [8]  0B 17 57 8D AB E9 8A 5C
 (015.923415)  can0  RX - -  109   [8]  1D 62 7E 05 17 EA 3E 7E
 (016.199740)  can0  RX - -  109   [8]  0F 17 5E 0A 8D AF 8A BE
 (016.199857)  can0  RX - -  109   [7]  24 81 EF 51 3C 03 7E
 (016.209972)  can0  RX - -  109   [8]  0F 17 5E 0B 8D AF 91 E7
 (016.210092)  can0  RX - -  109   [7]  64 81 F3 4E F8 9D 7E
 (016.500215)  can0  RX - -  109   [8]  0F 17 5E 0A 8D B0 E6 9B
 (016.500334)  can0  RX - -  109   [7]  24 81 EF 4F 99 41 7E
 (016.510462)  can0  RX - -  109   [8]  0F 17 5E 0B 8D B0 ED C4
 (016.510612)  can0  RX - -  109   [7]  64 81 F3 4D EF 93 7E
 (016.799471)  can0  RX - -  109   [8]  0F 17 5E 0A 8D B2 C1 F8
 (016.799698)  can0  RX - -  109   [7]  24 81 EF 52 40 50 7E
 (016.809720)  can0  RX - -  109   [8]  0F 17 5E 0B 8D B2 C9 A1
 (016.809847)  can0  RX - -  109   [7]  64 81 F3 4C DB 8A 7E
 (016.907497)  can0  TX - -  108   [6]  06 17 05 60 DE 7E
 (016.907709)  can0  RX - -  109   [8]  0B 18 57 8D B1 BA 85 58
 (016.907738)  can0  RX - -  109   [8]  B2 F2 7E 05 18 12 C9 7E
 (017.100361)  can0  RX - -  109   [8]  0F 18 5E 0A 8D B4 9D D5
 (017.100478)  can0  RX - -  109   [7]  24 81 EF 4B E4 E1 7E
 (017.109341)  can0  RX - -  109   [8]  0F 18 5E 0B 8D B4 A4 FE
 (017.109463)  can0  RX - -  109   [7]  64 81 F3 4A 57 CD 7E
 (017.399606)  can0  RX - -  109   [8]  0F 18 5E 0A 8D B5 F9 B2
 (017.399737)  can0  RX - -  109   [7]  24 81 EF 4D 18 70 7E
 (017.409881)  can0  RX - -  109   [8]  0F 18 5E 0B 8D B6 80 DB
 (017.409968)  can0  RX - -  109   [7]  64 81 F3 4B A2 F6 7E
 (017.700119)  can0  RX - -  109   [8]  0F 18 5E 0A 8D B7 D5 8F
 (017.700222)  can0  RX - -  109   [7]  24 81 EF 50 F8 9E 7E
 (017.710362)  can0  RX - -  109   [8]  0F 18 5E 0B 8D B7 DC B8
 (017.710493)  can0  RX - -  109   [7]  64 81 F3 4C 84 76 7E
 (017.891858)  can0  TX - -  108   [6]  06 18 05 E3 16 7E
 (017.891987)  can0  RX - -  109   [8]  0B 19 57 8D B7 8B 91 3D
 (017.892112)  can0  RX - -  109   [8]  7C 95 7E 05 19 03 40 7E
 (017.999706)  can0  RX - -  109   [8]  0F 19 5E 0A 8D B9 B0 EC
 (017.999821)  can0  RX - -  109   [7]  24 81 EF 50 04 67 7E
 (018.009948)  can0  RX - -  109   [8]  0F 19 5E 0B 8D B9 B8 95
 (018.010073)  can0  RX - -  109   [7]  64 81 F3 4E FF 2C 7E
 (018.300226)  can0  RX - -  109   [8]  0F 19 5E 0A 8D BB 8C C9
 (018.300366)  can0  RX - -  109   [7]  24 81 EF 4F 6B 4B 7E
 (018.310475)  can0  RX - -  109   [8]  0F 19 5E 0B 8D BB 93 F2
 (018.310594)  can0  RX - -  109   [7]  64 81 F3 4A B7 99 7E
 (018.599471)  can0  RX - -  109   [8]  0F 19 5E 0A 8D BC E8 A6
 (018.599583)  can0  RX - -  109   [7]  24 81 EF 54 5E 53 7E
 (018.609714)  can0  RX - -  109   [8]  0F 19 5E 0B 8D BC EF CF
 (018.609831)  can0  RX - -  109   [7]  64 81 F3 4D 58 6E 7E
 (018.876209)  can0  TX - -  108   [6]  06 19 05 FA CE 7E
 (018.876468)  can0  RX - -  109   [8]  32 58 7E 05 1A 31 DB 7E
 (018.876342)  can0  RX - -  109   [8]  0B 1A 57 8D BC DC A3 04
 (018.900396)  can0  RX - -  109   [8]  0F 1A 5E 0A 8D BE C4 83
 (018.900464)  can0  RX - -  109   [7]  24 81 EF 4F CB 58 7E
 (018.909370)  can0  RX - -  109   [8]  0F 1A 5E 0B 8D BE CB AC
 (018.909474)  can0  RX - -  109   [7]  64 81 F3 4E 8A 4E 7E
 (019.119598)  can0  RX - -  109   [8]  0E 1A 55 81 49 81 EA 13
 (019.119717)  can0  RX - -  109   [6]  83 CD 56 D3 0C 7E
 (019.199857)  can0  RX - -  109   [8]  0F 1A 5E 0A 8D C0 9F E0
 (019.199965)  can0  RX - -  109   [7]  24 81 EF 4F 8D 0E 7E
 (019.210088)  can0  RX - -  109   [8]  0F 1A 5E 0B 8D C0 A7 89
 (019.210215)  can0  RX - -  109   [7]  64 81 F3 4A AB 87 7E
 (019.500359)  can0  RX - -  109   [8]  0F 1A 5E 0A 8D C1 FB BD
 (019.500470)  can0  RX - -  109   [7]  24 81 EF 50 64 A6 7E
 (019.509351)  can0  RX - -  109   [8]  0F 1A 5E 0B 8D C2 82 E6
 (019.509496)  can0  RX - -  109   [7]  64 81 F3 4D B2 2B 7E
 (019.799594)  can0  RX - -  109   [8]  0F 1A 5E 0A 8D C3 D7 9A
 (019.799714)  can0  RX - -  109   [7]  24 81 EF 4C 6D 29 7E
 (019.809836)  can0  RX - -  109   [8]  0F 1A 5E 0B 8D C3 DE C3
 (019.809963)  can0  RX - -  109   [7]  64 81 F3 4A 6E 11 7E
 (019.861335)  can0  TX - -  108   [6]  06 1A 05 D0 A6 7E
 (019.861473)  can0  RX - -  109   [8]  0B 1B 57 8D C2 AD E4 10
 (019.861598)  can0  RX - -  109   [8]  DE 45 7E 05 1B 20 52 7E
 (020.100493)  can0  RX - -  109   [8]  0F 1B 5E 0A 8D C5 B2 F7
 (020.100601)  can0  RX - -  109   [7]  24 81 EF 53 C6 F2 7E
 (020.109487)  can0  RX - -  109   [8]  0F 1B 5E 0B 8D C5 BA A0
 (020.109598)  can0  RX - -  109   [7]  64 81 F3 4B 59 A6 7E
 (020.399730)  can0  RX - -  109   [8]  0F 1B 5E 0A 8D C7 8E D4
 (020.399866)  can0  RX - -  109   [7]  24 81 EF 4D 83 CF 7E
 (020.409969)  can0  RX - -  109   [8]  0F 1B 5E 0B 8D C7 95 FD
 (020.410096)  can0  RX - -  109   [7]  64 81 F3 49 FC F0 7E
 (020.700237)  can0  RX - -  109   [8]  0F 1B 5E 0A 8D C8 EA B1
 (020.700342)  can0  RX - -  109   [7]  24 81 EF 4F A9 D3 7E
 (020.709221)  can0  RX - -  109   [8]  0F 1B 5E 0B 8D C8 F1 DA
 (020.709338)  can0  RX - -  109   [7]  64 81 F3 4F 47 62 7E
 (020.845754)  can0  TX - -  108   [6]  06 1B 05 C9 7E 7E
 (020.847092)  can0  RX - -  109   [8]  0B 1C 57 8D C7 FF A4 7D
 (020.847216)  can0  RX - -  109   [8]  BF D4 7E 05 1C 54 ED 7E
 (020.999834)  can0  RX - -  109   [8]  0F 1C 5E 0A 8D CA C6 8E
 (020.999954)  can0  RX - -  109   [7]  24 81 EF 52 FF 53 7E
 (021.010076)  can0  RX - -  109   [8]  0F 1C 5E 0B 8D CA CD B7
 (021.010201)  can0  RX - -  109   [7]  64 81 F3 4C C9 47 7E
 (021.300340)  can0  RX - -  109   [8]  0F 1C 5E 0A 8D CC A1 EB
 (021.300564)  can0  RX - -  109   [7]  24 81 EF 4F 70 7D 7E
 (021.309337)  can0  RX - -  109   [8]  0F 1C 5E 0B 8D CC A9 94
 (021.309466)  can0  RX - -  109   [7]  64 81 F3 4C 7B CA 7E
 (021.599610)  can0  RX - -  109   [8]  0F 1C 5E 0A 8D CD FD C8
 (021.599743)  can0  RX - -  109   [7]  24 81 EF 4F E3 60 7E
 (021.609847)  can0  RX - -  109   [8]  0F 1C 5E 0B 8D CE 84 F1
 (021.609976)  can0  RX - -  109   [7]  64 81 F3 47 C5 FA 7E
 (021.831347)  can0  TX - -  108   [6]  06 1C 05 84 76 7E
 (021.831494)  can0  RX - -  109   [8]  0B 1D 57 8D CD D0 F1 68
 (021.831595)  can0  RX - -  109   [8]  5F 30 7E 05 1D 45 64 7E
 (021.899240)  can0  RX - -  109   [8]  0F 1D 5E 0A 8D CF D9 A5
 (021.899528)  can0  RX - -  109   [7]  24 81 EF 53 13 AC 7E
 (021.909489)  can0  RX - -  109   [8]  0F 1D 5E 0B 8D CF E0 CE
 (021.909810)  can0  RX - -  109   [7]  64 81 F3 4A FD 6B 7E
 (022.199733)  can0  RX - -  109   [8]  0F 1D 5E 0A 8D D1 B5 82
 (022.199937)  can0  RX - -  109   [7]  24 81 EF 4E 0D 28 7E
 (022.209966)  can0  RX - -  109   [8]  0F 1D 5E 0B 8D D1 BC AB
 (022.210088)  can0  RX - -  109   [7]  64 81 F3 4C 5D C7 7E
 (022.500209)  can0  RX - -  109   [8]  0F 1D 5E 0A 8D D3 90 DF
 (022.500342)  can0  RX - -  109   [7]  24 81 EF 4D 90 F9 7E
 (022.509202)  can0  RX - -  109   [8]  0F 1D 5E 0B 8D D3 98 88
 (022.509326)  can0  RX - -  109   [7]  64 81 F3 4E A1 FF 7E
 (022.799459)  can0  RX - -  109   [8]  0F 1D 5E 0A 8D D4 EC BC
 (022.799597)  can0  RX - -  109   [7]  24 81 EF 51 C5 86 7E
 (022.809709)  can0  RX - -  109   [8]  0F 1D 5E 0B 8D D4 F3 E5
 (022.809833)  can0  RX - -  109   [7]  64 81 F3 4C 32 A6 7E
 (022.816203)  can0  TX - -  108   [6]  06 1D 05 9D AE 7E
 (022.816342)  can0  RX - -  109   [8]  0B 1E 57 8D D3 A1 F4 61
 (022.816467)  can0  RX - -  109   [8]  A3 C0 7E 05 1E 77 FF 7E
 (023.100357)  can0  RX - -  109   [8]  0F 1E 5E 0A 8D D6 C8 99
 (023.100456)  can0  RX - -  109   [7]  24 81 EF 50 CE 0E 7E
 (023.109334)  can0  RX - -  109   [8]  0F 1E 5E 0B 8D D6 CF C2
 (023.109461)  can0  RX - -  109   [7]  64 81 F3 4A 38 F1 7E
 (023.399598)  can0  RX - -  109   [8]  0F 1E 5E 0A 8D D8 A3 F6
 (023.399714)  can0  RX - -  109   [7]  24 81 EF 52 0A E6 7E
 (023.409843)  can0  RX - -  109   [8]  0F 1E 5E 0B 8D D8 AB 9F
 (023.409983)  can0  RX - -  109   [7]  64 81 F3 4C 45 ED 7E
 (023.700109)  can0  RX - -  109   [8]  0F 1E 5E 0A 8D D9 FF D3
 (023.700426)  can0  RX - -  109   [7]  24 81 EF 4F 69 07 7E
 (023.710348)  can0  RX - -  109   [8]  0F 1E 5E 0B 8D DA 86 FC
 (023.710483)  can0  RX - -  109   [7]  64 81 F3 4F 4C 0D 7E
 (023.800579)  can0  TX - -  108   [6]  06 1E 05 B7 C6 7E
 (023.800706)  can0  RX - -  109   [8]  0B 1F 57 8D D8 F2 F8 4C
 (023.800825)  can0  RX - -  109   [8]  C3 C0 7E 05 1F 66 76 7E
 (023.999706)  can0  RX - -  109   [8]  0F 1F 5E 0A 8D DB DB B0
 (023.999824)  can0  RX - -  109   [7]  24 81 EF 53 F8 73 7E
 (024.009947)  can0  RX - -  109   [8]  0F 1F 5E 0B 8D DB E2 D9
 (024.010075)  can0  RX - -  109   [7]  64 81 F3 4C 65 0A 7E
 (024.220213)  can0  RX - -  109   [8]  0E 1F 55 81 52 81 F5 63
 (024.220325)  can0  RX - -  109   [6]  83 EF 22 2D 25 7E
 (024.299206)  can0  RX - -  109   [8]  0F 1F 5E 0A 8D DD B7 8D
 (024.299336)  can0  RX - -  109   [7]  24 81 EF 4F 64 B3 7E
 (024.309460)  can0  RX - -  109   [8]  0F 1F 5E 0B 8D DD BE B6
 (024.309590)  can0  RX - -  109   [7]  64 81 F3 4B F3 A2 7E
 (024.599715)  can0  RX - -  109   [8]  0F 1F 5E 0A 8D DF 92 EA
 (024.599819)  can0  RX - -  109   [7]  24 81 EF 50 BB F6 7E
 (024.609959)  can0  RX - -  109   [8]  0F 1F 5E 0B 8D DF 9A 93
 (024.610105)  can0  RX - -  109   [7]  64 81 F3 4D 72 26 7E
 (024.783953)  can0  TX - -  108   [6]  06 1F 05 AE 1E 7E
 (024.785330)  can0  RX - -  109   [8]  0B 10 57 8D DE C3 E4 3B
 (024.785450)  can0  RX - -  109   [8]  76 D5 7E 05 10 9E 81 7E
 (024.899357)  can0  RX - -  109   [8]  0F 10 5E 0A 8D E0 EE C7
 (024.899604)  can0  RX - -  109   [7]  24 81 EF 4D 4B 70 7E
 (024.909593)  can0  RX - -  109   [8]  0F 10 5E 0B 8D E0 F5 F0
 (024.909811)  can0  RX - -  109   [7]  64 81 F3 4C B6 1A 7E
 (025.199843)  can0  RX - -  109   [8]  0F 10 5E 0A 8D E2 CA A4
 (025.199957)  can0  RX - -  109   [7]  24 81 EF 4D 55 78 7E
 (025.210084)  can0  RX - -  109   [8]  0F 10 5E 0B 8D E2 D1 CD
 (025.210202)  can0  RX - -  109   [7]  64 81 F3 4F 8E 53 7E
 (025.499079)  can0  RX - -  109   [8]  0F 10 5E 0A 8D E4 A6 81
 (025.499201)  can0  RX - -  109   [7]  24 81 EF 4E CF AE 7E
 (025.509321)  can0  RX - -  109   [8]  0F 10 5E 0B 8D E4 AD AA
 (025.509444)  can0  RX - -  109   [7]  64 81 F3 4C 81 9F 7E
 (025.768340)  can0  TX - -  108   [6]  06 10 05 2D D6 7E
 (025.769708)  can0  RX - -  109   [8]  0B 11 57 8D E4 94 EE 15
 (025.769848)  can0  RX - -  109   [8]  43 B6 7E 05 11 8F 08 7E
 (025.799956)  can0  RX - -  109   [8]  0F 11 5E 0A 8D E6 81 DE
 (025.800104)  can0  RX - -  109   [7]  24 81 EF 4F 3A 22 7E
 (025.810206)  can0  RX - -  109   [8]  0F 11 5E 0B 8D E6 89 87
 (025.810335)  can0  RX - -  109   [7]  64 81 F3 4E 49 8E 7E
 (026.099217)  can0  RX - -  109   [8]  0F 11 5E 0A 8D E7 DD BB
 (026.099318)  can0  RX - -  109   [7]  24 81 EF 4F 53 85 7E
 (026.109455)  can0  RX - -  109   [8]  0F 11 5E 0B 8D E7 E4 E4
 (026.109578)  can0  RX - -  109   [7]  64 81 F3 4C FB 58 7E
 (026.399719)  can0  RX - -  109   [8]  0F 11 5E 0A 8D E9 B9 98
 (026.399849)  can0  RX - -  109   [7]  24 81 EF 4E 2E 6D 7E
 (026.409969)  can0  RX - -  109   [8]  0F 11 5E 0B 8D E9 C0 C1
 (026.410088)  can0  RX - -  109   [7]  64 81 F3 4D BF F9 7E
 (026.700235)  can0  RX - -  109   [8]  0F 11 5E 0A 8D EB 94 F5
 (026.700343)  can0  RX - -  109   [7]  24 81 EF 49 00 11 7E
 (026.709221)  can0  RX - -  109   [8]  0F 11 5E 0B 8D EB 9C 9E
 (026.709346)  can0  RX - -  109   [7]  64 81 F3 4D E6 49 7E
 (026.753210)  can0  TX - -  108   [6]  06 11 05 34 0E 7E
 (026.753354)  can0  RX - -  109   [8]  0B 12 57 8D E9 E5 F7 52
 (026.753459)  can0  RX - -  109   [8]  CE 61 7E 05 12 BD 93 7E
 (026.999826)  can0  RX - -  109   [8]  0F 12 5E 0A 8D EC F0 D2
 (026.999961)  can0  RX - -  109   [7]  24 81 EF 50 73 AA 7E
 (027.010076)  can0  RX - -  109   [8]  0F 12 5E 0B 8D EC F7 FB
 (027.010197)  can0  RX - -  109   [7]  64 81 F3 4A 86 2E 7E
 (027.299082)  can0  RX - -  109   [8]  0F 12 5E 0A 8D EE CC AF
 (027.299232)  can0  RX - -  109   [7]  24 81 EF 52 F8 A0 7E
 (027.309330)  can0  RX - -  109   [8]  0F 12 5E 0B 8D EE D3 D8
 (027.309462)  can0  RX - -  109   [7]  64 81 F3 4C 3C 32 7E
 (027.599587)  can0  RX - -  109   [8]  0F 12 5E 0A 8D F0 A8 8C
 (027.599694)  can0  RX - -  109   [7]  24 81 EF 50 02 1A 7E
 (027.609838)  can0  RX - -  109   [8]  0F 12 5E 0B 8D F0 AF B5
 (027.609965)  can0  RX - -  109   [7]  64 81 F3 4D 37 61 7E
 (027.738824)  can0  TX - -  108   [6]  06 12 05 1E 66 7E
 (027.738954)  can0  RX - -  109   [8]  0B 13 57 8D EF B7 A6 19
 (027.739150)  can0  RX - -  109   [8]  1A 8D 7E 05 13 AC 1A 7E
 (027.899222)  can0  RX - -  109   [8]  0F 13 5E 0A 8D F2 83 E9
 (027.899351)  can0  RX - -  109   [7]  24 81 EF 4D 84 F6 7E
 (027.909481)  can0  RX - -  109   [8]  0F 13 5E 0B 8D F2 8B 92
 (027.909571)  can0  RX - -  109   [7]  64 81 F3 4C 81 43 7E
 (028.199765)  can0  RX - -  109   [8]  0F 13 5E 0A 8D F3 DF C6
 (028.199836)  can0  RX - -  109   [7]  24 81 EF 49 26 FF 7E
 (028.209957)  can0  RX - -  109   [8]  0F 13 5E 0B 8D F3 E6 EF
 (028.210087)  can0  RX - -  109   [7]  64 81 F3 4E E6 6D 7E
 (028.500218)  can0  RX - -  109   [8]  0F 13 5E 0A 8D F5 BB A3
 (028.500412)  can0  RX - -  109   [7]  24 81 EF 4C 39 65 7E
 (028.509203)  can0  RX - -  109   [8]  0F 13 5E 0B 8D F5 C2 CC
 (028.509314)  can0  RX - -  109   [7]  64 81 F3 4C 75 23 7E
 (028.723199)  can0  TX - -  108   [6]  06 13 05 07 BE 7E
 (028.723462)  can0  RX - -  109   [8]  89 5E 7E 05 14 D8 A5 7E
 (028.723338)  can0  RX - -  109   [8]  0B 14 57 8D F5 88 9E 61
 (028.799818)  can0  RX - -  109   [8]  0F 14 5E 0A 8D F7 97 80
 (028.799948)  can0  RX - -  109   [7]  24 81 EF 4C 67 F1 7E
 (028.810064)  can0  RX - -  109   [8]  0F 14 5E 0B 8D F7 9E A9
 (028.810190)  can0  RX - -  109   [7]  64 81 F3 4E 37 1E 7E
 (029.099093)  can0  RX - -  109   [8]  0F 14 5E 0A 8D F8 F2 DD
 (029.099200)  can0  RX - -  109   [7]  24 81 EF 4A 81 13 7E
 (029.109321)  can0  RX - -  109   [8]  0F 14 5E 0B 8D F8 FA 86
 (029.109443)  can0  RX - -  109   [7]  64 81 F3 4E B3 9A 7E
 (029.319579)  can0  RX - -  109   [8]  0E 14 55 81 52 81 F5 38
 (029.319700)  can0  RX - -  109   [6]  83 EE 7D 96 CC 7E
 (029.399814)  can0  RX - -  109   [8]  0F 14 5E 0A 8D FA CE BA
 (029.399948)  can0  RX - -  109   [7]  24 81 EF 52 4D 2A 7E
 (029.410087)  can0  RX - -  109   [8]  0F 14 5E 0B 8D FA D5 E3
 (029.410219)  can0  RX - -  109   [7]  64 81 F3 4D 89 B4 7E
 (029.699101)  can0  RX - -  109   [8]  0F 14 5E 0A 8D FC AA 97
 (029.699220)  can0  RX - -  109   [7]  24 81 EF 50 BD 0D 7E
 (029.708107)  can0  TX - -  108   [6]  06 14 05 4A B6 7E
 (029.708223)  can0  RX - -  109   [8]  0B 15 57 8D FA D9 CE 7A
 (029.708358)  can0  RX - -  109   [8]  00 E8 7E 05 15 C9 2C 7E
 (029.709792)  can0  RX - -  109   [8]  0F 15 5E 0B 8D FC B1 C0
 (029.709836)  can0  RX - -  109   [7]  64 81 F3 50 A5 CC 7E
 (029.999951)  can0  RX - -  109   [8]  0F 15 5E 0A 8D FE 85 F4
 (030.000061)  can0  RX - -  109   [7]  24 81 EF 4F 33 C7 7E
 (030.008933)  can0  RX - -  109   [8]  0F 15 5E 0B 8D FE 8D 9D
 (030.009052)  can0  RX - -  109   [7]  64 81 F3 4D A6 21 7E
 (030.299206)  can0  RX - -  109   [8]  0F 15 5E 0A 8D FF E1 D1
 (030.299425)  can0  RX - -  109   [7]  24 81 EF 4F 7D CA 7E
 (030.309446)  can0  RX - -  109   [8]  0F 15 5E 0B 8D FF E8 FA
 (030.309575)  can0  RX - -  109   [7]  64 81 F3 4D 3B AD 7E
 (030.599693)  can0  RX - -  109   [8]  0F 15 5E 0A 8E 81 BD AE
 (030.599814)  can0  RX - -  109   [7]  24 81 EF 51 97 12 7E
 (030.609943)  can0  RX - -  109   [8]  0F 15 5E 0B 8E 81 C4 D7
 (030.610088)  can0  RX - -  109   [7]  64 81 F3 4D 8E 61 7E
 (030.692702)  can0  TX - -  108   [6]  06 15 05 53 6E 7E
 (030.692842)  can0  RX - -  109   [8]  0B 16 57 8E 80 AB 8B 7E
 (030.692957)  can0  RX - -  109   [8]  78 3B 7E 05 16 FB B7 7E
 (030.899350)  can0  RX - -  109   [8]  0F 16 5E 0A 8E 83 99 8B
 (030.899450)  can0  RX - -  109   [7]  24 81 EF 51 8D 13 7E
 (030.909591)  can0  RX - -  109   [8]  0F 16 5E 0B 8E 83 A0 B4
 (030.909798)  can0  RX - -  109   [7]  64 81 F3 4D 6C 0B 7E
 (031.199827)  can0  RX - -  109   [8]  0F 16 5E 0A 8E 84 F4 E8
 (031.199941)  can0  RX - -  109   [7]  24 81 EF 50 55 93 7E
 (031.210097)  can0  RX - -  109   [8]  0F 16 5E 0B 8E 84 FC 91
 (031.210197)  can0  RX - -  109   [7]  64 81 F3 4E AE D8 7E
 (031.499073)  can0  RX - -  109   [8]  0F 16 5E 0A 8E 86 D0 C5
 (031.499197)  can0  RX - -  109   [7]  24 81 EF 47 8F 3F 7E
 (031.509307)  can0  RX - -  109   [8]  0F 16 5E 0B 8E 86 D7 EE
 (031.509437)  can0  RX - -  109   [7]  64 81 F3 4F 5F A0 7E
 (031.677081)  can0  TX - -  108   [6]  06 16 05 79 06 7E
 (031.677212)  can0  RX - -  109   [8]  0B 17 57 8E 85 FC 92 58
 (031.677327)  can0  RX - -  109   [8]  80 E2 7E 05 17 EA 3E 7E
 (031.799956)  can0  RX - -  109   [8]  0F 17 5E 0A 8E 88 AC A2
 (031.800068)  can0  RX - -  109   [7]  24 81 EF 4F B5 5D 7E
 (031.808943)  can0  RX - -  109   [8]  0F 17 5E 0B 8E 88 B3 CB
 (031.809066)  can0  RX - -  109   [7]  64 81 F3 4B 1B EC 7E
 (032.099206)  can0  RX - -  109   [8]  0F 17 5E 0A 8E 8A 87 FF
 (032.099312)  can0  RX - -  109   [7]  24 81 EF 54 8D E7 7E
 (032.109439)  can0  RX - -  109   [8]  0F 17 5E 0B 8E 8A 8F A8
 (032.109564)  can0  RX - -  109   [7]  64 81 F3 50 C8 5E 7E
 (032.399696)  can0  RX - -  109   [8]  0F 17 5E 0A 8E 8B E3 DC
 (032.399815)  can0  RX - -  109   [7]  24 81 EF 4B 10 04 7E
 (032.409943)  can0  RX - -  109   [8]  0F 17 5E 0B 8E 8B EB 85
 (032.410068)  can0  RX - -  109   [7]  64 81 F3 4A 63 A8 7E
 (032.661431)  can0  TX - -  108   [6]  06 17 05 60 DE 7E
 (032.661563)  can0  RX - -  109   [8]  0B 18 57 8E 8B CD BF 3D
 (032.661698)  can0  RX - -  109   [8]  4C C6 7E 05 18 12 C9 7E
 (032.699318)  can0  RX - -  109   [8]  0F 18 5E 0A 8E 8D BF B9
 (032.699475)  can0  RX - -  109   [7]  24 81 EF 51 1D 2C 7E
 (032.709604)  can0  RX - -  109   [8]  0F 18 5E 0B 8E 8D C6 E2
 (032.709744)  can0  RX - -  109   [7]  64 81 F3 4D 72 46 7E
 (032.999829)  can0  RX - -  109   [8]  0F 18 5E 0A 8E 8F 9B 96
 (032.999945)  can0  RX - -  109   [7]  24 81 EF 55 F3 12 7E
 (033.010057)  can0  RX - -  109   [8]  0F 18 5E 0B 8E 8F A2 BF
 (033.010185)  can0  RX - -  109   [7]  64 81 F3 50 10 92 7E
 (033.299074)  can0  RX - -  109   [8]  0F 18 5E 0A 8E 90 F6 F3
 (033.299188)  can0  RX - -  109   [7]  24 81 EF 4E C4 F4 7E
 (033.309316)  can0  RX - -  109   [8]  0F 18 5E 0B 8E 90 FE 9C
 (033.309434)  can0  RX - -  109   [7]  64 81 F3 4F 58 11 7E
 (033.599573)  can0  RX - -  109   [8]  0F 18 5E 0A 8E 92 D2 D0
 (033.599683)  can0  RX - -  109   [7]  24 81 EF 50 E2 21 7E
 (033.609809)  can0  RX - -  109   [8]  0F 18 5E 0B 8E 92 D9 F9
 (033.609938)  can0  RX - -  109   [7]  64 81 F3 4B 37 D8 7E
 (033.646321)  can0  TX - -  108   [6]  06 18 05 E3 16 7E
 (033.646478)  can0  RX - -  109   [8]  0B 19 57 8E 91 9E BB 27
 (033.646589)  can0  RX - -  109   [8]  78 20 7E 05 19 03 40 7E
 (033.899209)  can0  RX - -  109   [8]  0F 19 5E 0A 8E 94 AE AD
 (033.899331)  can0  RX - -  109   [7]  24 81 EF 47 16 31 7E
 (033.909470)  can0  RX - -  109   [8]  0F 19 5E 0B 8E 94 B5 D6
 (033.909598)  can0  RX - -  109   [7]  64 81 F3 4F C0 88 7E
 (034.199694)  can0  RX - -  109   [8]  0F 19 5E 0A 8E 96 8A 8A
 (034.199817)  can0  RX - -  109   [7]  24 81 EF 52 A3 27 7E
 (034.209952)  can0  RX - -  109   [8]  0F 19 5E 0B 8E 96 91 B3
 (034.210067)  can0  RX - -  109   [7]  64 81 F3 4C D7 83 7E
 (034.420191)  can0  RX - -  109   [8]  0E 19 55 81 52 81 F7 29
 (034.420326)  can0  RX - -  109   [6]  83 EC 7C 88 F5 7E
 (034.499220)  can0  RX - -  109   [8]  0F 19 5E 0A 8E 97 E5 E7
 (034.499406)  can0  RX - -  109   [7]  24 81 EF 49 F5 5F 7E
 (034.509443)  can0  RX - -  109   [8]  0F 19 5E 0B 8E 97 ED 90
 (034.509579)  can0  RX - -  109   [7]  64 81 F3 4C C1 FE 7E
 (034.630930)  can0  TX - -  108   [6]  06 19 05 FA CE 7E
 (034.631070)  can0  RX - -  109   [8]  0B 1A 57 8E 96 EF EC 37
 (034.631206)  can0  RX - -  109   [8]  D3 15 7E 05 1A 31 DB 7E
 (034.798813)  can0  RX - -  109   [8]  0F 1A 5E 0A 8E 99 C1 C4
 (034.798968)  can0  RX - -  109   [7]  24 81 EF 4B 46 4E 7E
 (034.809066)  can0  RX - -  109   [8]  0F 1A 5E 0B 8E 99 C8 ED
 (034.809197)  can0  RX - -  109   [7]  64 81 F3 4D 50 85 7E
 (035.099343)  can0  RX - -  109   [8]  0F 1A 5E 0A 8E 9B 9D A1
 (035.099457)  can0  RX - -  109   [7]  24 81 EF 4B 87 87 7E
 (035.109581)  can0  RX - -  109   [8]  0F 1A 5E 0B 8E 9B A4 CA
 (035.109713)  can0  RX - -  109   [7]  64 81 F3 4F A2 24 7E
 (035.399818)  can0  RX - -  109   [8]  0F 1A 5E 0A 8E 9C F8 FE
 (035.399947)  can0  RX - -  109   [7]  24 81 EF 51 73 EC 7E
 (035.408834)  can0  RX - -  109   [8]  0F 1A 5E 0B 8E 9D 80 A7
 (035.409050)  can0  RX - -  109   [7]  64 81 F3 4C 80 79 7E
 (035.615320)  can0  TX - -  108   [6]  06 1A 05 D0 A6 7E
 (035.615457)  can0  RX - -  109   [8]  0B 1B 57 8E 9C C0 F5 03
 (035.615589)  can0  RX - -  109   [8]  EC BC 7E 05 1B 20 52 7E
 (035.699448)  can0  RX - -  109   [8]  0F 1B 5E 0A 8E 9E D4 DB
 (035.699574)  can0  RX - -  109   [7]  24 81 EF 4E 0B E1 7E
 (035.709691)  can0  RX - -  109   [8]  0F 1B 5E 0B 8E 9E DC 84
 (035.709863)  can0  RX - -  109   [7]  64 81 F3 4E 52 5C 7E
 (035.999946)  can0  RX - -  109   [8]  0F 1B 5E 0A 8E A0 B0 B8
 (036.000072)  can0  RX - -  109   [7]  24 81 EF 4E 70 E8 7E
 (036.008933)  can0  RX - -  109   [8]  0F 1B 5E 0B 8E A0 B7 E1
 (036.009058)  can0  RX - -  109   [7]  64 81 F3 4C 0C 56 7E
 (036.299196)  can0  RX - -  109   [8]  0F 1B 5E 0A 8E A2 8C 95
 (036.299314)  can0  RX - -  109   [7]  24 81 EF 4F BC 1B 7E
 (036.309439)  can0  RX - -  109   [8]  0F 1B 5E 0B 8E A2 93 BE
 (036.309559)  can0  RX - -  109   [7]  64 81 F3 4B C5 00 7E
 (036.599675)  can0  RX - -  109   [8]  0F 1B 5E 0A 8E A3 E7 F2
 (036.599808)  can0  RX - -  109   [7]  24 81 EF 4F 18 35 7E
 (036.599931)  can0  TX - -  108   [6]  06 1B 05 C9 7E 7E
 (036.600054)  can0  RX - -  109   [8]  0B 1C 57 8E A2 92 94 3C
 (036.600173)  can0  RX - -  109   [8]  4A B6 7E 05 1C 54 ED 7E
 (036.609051)  can0  RX - -  109   [8]  0F 1C 5E 0B 8E A3 EF 9B
 (036.609174)  can0  RX - -  109   [7]  64 81 F3 4C 3C BC 7E
 (036.899335)  can0  RX - -  109   [8]  0F 1C 5E 0A 8E A5 C3 CF
 (036.899469)  can0  RX - -  109   [7]  24 81 EF 51 24 88 7E
 (036.909577)  can0  RX - -  109   [8]  0F 1C 5E 0B 8E A5 CA F8
 (036.909746)  can0  RX - -  109   [7]  64 81 F3 53 A1 9F 7E
 (037.199815)  can0  RX - -  109   [8]  0F 1C 5E 0A 8E A7 9F AC
 (037.200071)  can0  RX - -  109   [7]  24 81 EF 4D 04 34 7E
 (037.208813)  can0  RX - -  109   [8]  0F 1C 5E 0B 8E A7 A6 D5
 (037.208937)  can0  RX - -  109   [7]  64 81 F3 4E F7 E0 7E
 (037.499080)  can0  RX - -  109   [8]  0F 1C 5E 0A 8E A8 FB 89
 (037.499199)  can0  RX - -  109   [7]  24 81 EF 4E FE 83 7E
 (037.509327)  can0  RX - -  109   [8]  0F 1C 5E 0B 8E A9 82 B2
 (037.509442)  can0  RX - -  109   [7]  64 81 F3 4F 64 EB 7E
 (037.584548)  can0  TX - -  108   [6]  06 1C 05 84 76 7E
 (037.584674)  can0  RX - -  109   [8]  0B 1D 57 8E A7 E3 8E 14
 (037.584806)  can0  RX - -  109   [8]  A4 9B 7E 05 1D 45 64 7E
 (037.798699)  can0  RX - -  109   [8]  0F 1D 5E 0A 8E AA D6 E6
 (037.798928)  can0  RX - -  109   [7]  24 81 EF 4D D5 C2 7E
 (037.808952)  can0  RX - -  109   [8]  0F 1D 5E 0B 8E AA DE 8F
 (037.809092)  can0  RX - -  109   [7]  64 81 F3 4F 40 24 7E
 (038.099200)  can0  RX - -  109   [8]  0F 1D 5E 0A 8E AC B2 C3
 (038.099299)  can0  RX - -  109   [7]  24 81 EF 52 B4 A1 7E
 (038.109477)  can0  RX - -  109   [8]  0F 1D 5E 0B 8E AC B9 EC
 (038.109570)  can0  RX - -  109   [7]  64 81 F3 4B 79 D2 7E
 (038.399686)  can0  RX - -  109   [8]  0F 1D 5E 0A 8E AE 8E A0
 (038.399807)  can0  RX - -  109   [7]  24 81 EF 4C 30 BE 7E
 (038.408675)  can0  RX - -  109   [8]  0F 1D 5E 0B 8E AE 95 C9
 (038.408804)  can0  RX - -  109   [7]  64 81 F3 4D D9 0E 7E
 (038.568945)  can0  TX - -  108   [6]  06 1D 05 9D AE 7E
 (038.569075)  can0  RX - -  109   [8]  0B 1E 57 8E AD B4 BF 47
 (038.569195)  can0  RX - -  109   [8]  10 D9 7E 05 1E 77 FF 7E
 (038.699307)  can0  RX - -  109   [8]  0F 1E 5E 0A 8E AF E9 FD
 (038.699434)  can0  RX - -  109   [7]  24 81 EF 43 3B 59 7E
 (038.709550)  can0  RX - -  109   [8]  0F 1E 5E 0B 8E AF F1 A6
 (038.709689)  can0  RX - -  109   [7]  64 81 F3 4F C7 28 7E
 (038.999826)  can0  RX - -  109   [8]  0F 1E 5E 0A 8E B1 C5 DA
 (038.999948)  can0  RX - -  109   [7]  24 81 EF 4B 60 20 7E
 (039.008804)  can0  RX - -  109   [8]  0F 1E 5E 0B 8E B1 CD 83
 (039.008935)  can0  RX - -  109   [7]  64 81 F3 4C 76 BA 7E
 (039.299077)  can0  RX - -  109   [8]  0F 1E 5E 0A 8E B3 A1 B7
 (039.299220)  can0  RX - -  109   [7]  24 81 EF 4E 4A EC 7E
 (039.309315)  can0  RX - -  109   [8]  0F 1E 5E 0B 8E B3 A8 E0
 (039.309450)  can0  RX - -  109   [7]  64 81 F3 4E 4D 5A 7E
 (039.519576)  can0  RX - -  109   [8]  0E 1E 55 81 52 81 F5 64
 (039.519708)  can0  RX - -  109   [6]  83 F0 61 30 E5 7E
 (039.553542)  can0  TX - -  108   [6]  06 1E 05 B7 C6 7E
 (039.553674)  can0  RX - -  109   [8]  0B 1F 57 8E B3 85 AD 04
 (039.553801)  can0  RX - -  109   [8]  E8 23 7E 05 1F 66 76 7E
 (039.598926)  can0  RX - -  109   [8]  0F 1F 5E 0A 8E B4 FD 94
 (039.599041)  can0  RX - -  109   [7]  24 81 EF 53 1F C9 7E
 (039.609173)  can0  RX - -  109   [8]  0F 1F 5E 0B 8E B5 84 BD
 (039.609296)  can0  RX - -  109   [7]  64 81 F3 4F EC 0D 7E
 (039.899470)  can0  RX - -  109   [8]  0F 1F 5E 0A 8E B6 D8 F1
 (039.899564)  can0  RX - -  109   [7]  24 81 EF 4C D6 04 7E
 (039.909768)  can0  RX - -  109   [8]  0F 1F 5E 0B 8E B6 E0 9A
 (039.909809)  can0  RX - -  109   [7]  64 81 F3 4F 83 33 7E
 (040.198694)  can0  RX - -  109   [8]  0F 1F 5E 0A 8E B8 B4 CE
 (040.198802)  can0  RX - -  109   [7]  24 81 EF 50 82 A0 7E
 (040.208929)  can0  RX - -  109   [8]  0F 1F 5E 0B 8E B8 BB F7
 (040.209053)  can0  RX - -  109   [7]  64 81 F3 4B F3 B5 7E
 (040.499223)  can0  RX - -  109   [8]  0F 1F 5E 0A 8E BA 90 AB
 (040.499308)  can0  RX - -  109   [7]  24 81 EF 50 A7 30 7E
 (040.509443)  can0  RX - -  109   [8]  0F 1F 5E 0B 8E BA 97 D4
 (040.509595)  can0  RX - -  109   [7]  64 81 F3 4E 5A 6A 7E
 (040.538423)  can0  TX - -  108   [6]  06 1F 05 AE 1E 7E
 (040.538558)  can0  RX - -  109   [8]  0B 10 57 8E B8 D6 CC 4C
 (040.538669)  can0  RX - -  109   [8]  EF 84 7E 05 10 9E 81 7E
 (040.798829)  can0  RX - -  109   [8]  0F 10 5E 0A 8E BB EC 88
 (040.799110)  can0  RX - -  109   [7]  24 81 EF 51 BC 88 7E
 (040.809069)  can0  RX - -  109   [8]  0F 10 5E 0B 8E BB F3 B1
 (040.809198)  can0  RX - -  109   [7]  64 81 F3 50 30 F6 7E
 (041.099330)  can0  RX - -  109   [8]  0F 10 5E 0A 8E BD C7 E5
 (041.099624)  can0  RX - -  109   [7]  24 81 EF 52 A3 5C 7E
 (041.109593)  can0  RX - -  109   [8]  0F 10 5E 0B 8E BD CF 8E
 (041.109716)  can0  RX - -  109   [7]  64 81 F3 4C FA DF 7E
 (041.399807)  can0  RX - -  109   [8]  0F 10 5E 0A 8E BF A3 C2
 (041.399927)  can0  RX - -  109   [7]  24 81 EF 50 70 A5 7E
 (041.408811)  can0  RX - -  109   [8]  0F 10 5E 0B 8E BF AA EB
 (041.408941)  can0  RX - -  109   [7]  64 81 F3 4E FA A7 7E
 (041.522796)  can0  TX - -  108   [6]  06 10 05 2D D6 7E
 (041.522953)  can0  RX - -  109   [8]  0B 11 57 8E BE A7 EC 1A
 (041.523176)  can0  RX - -  109   [8]  F5 4F 7E 05 11 8F 08 7E
 (041.699571)  can0  RX - -  109   [8]  0F 11 5E 0A 8E C0 FF 9F
 (041.699684)  can0  RX - -  109   [7]  24 81 EF 4F BD 79 7E
 (041.709818)  can0  RX - -  109   [8]  0F 11 5E 0B 8E C1 86 C8
 (041.709940)  can0  RX - -  109   [7]  64 81 F3 4F E0 1B 7E
 (041.998825)  can0  RX - -  109   [8]  0F 11 5E 0A 8E C2 DA FC
 (041.998965)  can0  RX - -  109   [7]  24 81 EF 52 6C 3E 7E
 (042.009070)  can0  RX - -  109   [8]  0F 11 5E 0B 8E C2 E2 A5
 (042.009188)  can0  RX - -  109   [7]  64 81 F3 50 EA D9 7E
 (042.299329)  can0  RX - -  109   [8]  0F 11 5E 0A 8E C4 B6 D9
 (042.299434)  can0  RX - -  109   [7]  24 81 EF 4F 0F 17 7E
 (042.309560)  can0  RX - -  109   [8]  0F 11 5E 0B 8E C4 BE 82
 (042.309695)  can0  RX - -  109   [7]  64 81 F3 4F 7B BA 7E
 (042.507323)  can0  TX - -  108   [6]  06 11 05 34 0E 7E
 (042.507455)  can0  RX - -  109   [8]  0B 12 57 8E C3 F8 EF 66
 (042.507594)  can0  RX - -  109   [8]  D6 4C 7E 05 12 BD 93 7E
 (042.598922)  can0  RX - -  109   [8]  0F 12 5E 0A 8E C6 92 B6
 (042.599052)  can0  RX - -  109   [7]  24 81 EF 53 42 71 7E
 (042.609170)  can0  RX - -  109   [8]  0F 12 5E 0B 8E C6 99 DF
 (042.609295)  can0  RX - -  109   [7]  64 81 F3 4F 22 15 7E
 (042.899459)  can0  RX - -  109   [8]  0F 12 5E 0A 8E C7 EE 93
 (042.899554)  can0  RX - -  109   [7]  24 81 EF 4E A4 F0 7E
 (042.909724)  can0  RX - -  109   [8]  0F 12 5E 0B 8E C7 F5 BC
 (042.909821)  can0  RX - -  109   [7]  64 81 F3 4D 94 E8 7E
 (043.198687)  can0  RX - -  109   [8]  0F 12 5E 0A 8E C9 C9 F0
 (043.198812)  can0  RX - -  109   [7]  24 81 EF 45 B9 CC 7E
 (043.208921)  can0  RX - -  109   [8]  0F 12 5E 0B 8E C9 D1 99
 (043.209053)  can0  RX - -  109   [7]  64 81 F3 4B A4 F6 7E
 (043.491673)  can0  TX - -  108   [6]  06 12 05 1E 66 7E
 (043.491813)  can0  RX - -  109   [8]  0B 13 57 8E C9 CA 85 0A
 (043.491928)  can0  RX - -  109   [8]  97 6E 7E 05 13 AC 1A 7E
 (043.499594)  can0  RX - -  109   [8]  0F 13 5E 0A 8E CB A5 CD
 (043.499697)  can0  RX - -  109   [7]  24 81 EF 52 A1 38 7E
 (043.508592)  can0  RX - -  109   [8]  0F 13 5E 0B 8E CB AC F6
 (043.508695)  can0  RX - -  109   [7]  64 81 F3 4D 98 7B 7E
 (043.798807)  can0  RX - -  109   [8]  0F 13 5E 0A 8E CD 81 AA
 (043.798952)  can0  RX - -  109   [7]  24 81 EF 4C 04 A9 7E
 (043.809058)  can0  RX - -  109   [8]  0F 13 5E 0B 8E CD 88 D3
 (043.809190)  can0  RX - -  109   [7]  64 81 F3 4E 21 24 7E
 (044.099315)  can0  RX - -  109   [8]  0F 13 5E 0A 8E CE DD 87
 (044.099423)  can0  RX - -  109   [7]  24 81 EF 50 1B 5A 7E
 (044.109563)  can0  RX - -  109   [8]  0F 13 5E 0B 8E CE E4 B0
 (044.109770)  can0  RX - -  109   [7]  64 81 F3 4E 83 70 7E
 (044.398552)  can0  RX - -  109   [8]  0F 13 5E 0A 8E D0 B8 E4
 (044.398680)  can0  RX - -  109   [7]  24 81 EF 50 07 FB 7E
 (044.408797)  can0  RX - -  109   [8]  0F 13 5E 0B 8E D0 C0 8D
 (044.408936)  can0  RX - -  109   [7]  64 81 F3 50 74 0E 7E
 (044.476557)  can0  TX - -  108   [6]  06 13 05 07 BE 7E
 (044.476690)  can0  RX - -  109   [8]  0B 14 57 8E CF 9B 97 77
 (044.476803)  can0  RX - -  109   [8]  CC 90 7E 05 14 D8 A5 7E
 (044.619425)  can0  RX - -  109   [8]  0E 14 55 81 56 81 F9 23
 (044.619553)  can0  RX - -  109   [6]  83 F5 7F DF 15 7E
 (044.699676)  can0  RX - -  109   [8]  0F 14 5E 0A 8E D2 94 C1
 (044.699825)  can0  RX - -  109   [7]  24 81 EF 4E 9B 08 7E
 (044.708674)  can0  RX - -  109   [8]  0F 14 5E 0B 8E D2 9B EA
 (044.708802)  can0  RX - -  109   [7]  64 81 F3 4E E6 87 7E
 (044.998919)  can0  RX - -  109   [8]  0F 14 5E 0A 8E D3 F0 9E
 (044.999038)  can0  RX - -  109   [7]  24 81 EF 4F 9D D7 7E
 (045.009203)  can0  RX - -  109   [8]  0F 14 5E 0B 8E D3 F7 C7
 (045.009324)  can0  RX - -  109   [7]  64 81 F3 4F C2 7B 7E
 (045.299451)  can0  RX - -  109   [8]  0F 14 5E 0A 8E D5 CB FB
 (045.299546)  can0  RX - -  109   [7]  24 81 EF 47 24 40 7E
 (045.309670)  can0  RX - -  109   [8]  0F 14 5E 0B 8E D5 D3 A4
 (045.309794)  can0  RX - -  109   [7]  64 81 F3 4D 90 17 7E
 (045.461176)  can0  TX - -  108   [6]  06 14 05 4A B6 7E
 (045.461317)  can0  RX - -  109   [8]  0B 15 57 8E D4 EC A1 33
 (045.461431)  can0  RX - -  109   [8]  BA 7E 7E 05 15 C9 2C 7E
 (045.599068)  can0  RX - -  109   [8]  0F 15 5E 0A 8E D7 A7 D8
 (045.599238)  can0  RX - -  109   [7]  24 81 EF 4D 22 28 7E
 (045.609297)  can0  RX - -  109   [8]  0F 15 5E 0B 8E D7 AF 81
 (045.609430)  can0  RX - -  109   [7]  64 81 F3 50 8B 69 7E
 (045.899556)  can0  RX - -  109   [8]  0F 15 5E 0A 8E D9 83 B5
 (045.899673)  can0  RX - -  109   [7]  24 81 EF 4C FD 8B 7E
 (045.908565)  can0  RX - -  109   [8]  0F 15 5E 0B 8E D9 8A DE
 (045.908751)  can0  RX - -  109   [7]  64 81 F3 4D 48 55 7E
 (046.198794)  can0  RX - -  109   [8]  0F 15 5E 0A 8E DA DF 92
 (046.198997)  can0  RX - -  109   [7]  24 81 EF 4A 11 0B 7E
 (046.209039)  can0  RX - -  109   [8]  0F 15 5E 0B 8E DA E6 BB
 (046.209160)  can0  RX - -  109   [7]  64 81 F3 4E E3 02 7E
 (046.446802)  can0  TX - -  108   [6]  06 15 05 53 6E 7E
 (046.446928)  can0  RX - -  109   [8]  0B 16 57 8E DA BD EC 4D
 (046.447056)  can0  RX - -  109   [8]  09 8A 7E 05 16 FB B7 7E
 (046.498432)  can0  RX - -  109   [8]  0F 16 5E 0A 8E DC BA EF
 (046.498548)  can0  RX - -  109   [7]  24 81 EF 50 F2 1F 7E
 (046.508706)  can0  RX - -  109   [8]  0F 16 5E 0B 8E DC C2 98
 (046.508797)  can0  RX - -  109   [7]  64 81 F3 4F BC 64 7E
 (046.798950)  can0  RX - -  109   [8]  0F 16 5E 0A 8E DE 96 CC
 (046.799051)  can0  RX - -  109   [7]  24 81 EF 4D C7 09 7E
 (046.809175)  can0  RX - -  109   [8]  0F 16 5E 0B 8E DE 9D F5
 (046.809334)  can0  RX - -  109   [7]  64 81 F3 4B 6D D4 7E
 (047.099443)  can0  RX - -  109   [8]  0F 16 5E 0A 8E DF F2 A9
 (047.099568)  can0  RX - -  109   [7]  24 81 EF 4F 6B 34 7E
 (047.108445)  can0  RX - -  109   [8]  0F 16 5E 0B 8E DF F9 D2
 (047.108536)  can0  RX - -  109   [7]  64 81 F3 50 9B 03 7E
 (047.398673)  can0  RX - -  109   [8]  0F 16 5E 0A 8E E1 CE 86
 (047.398890)  can0  RX - -  109   [7]  24 81 EF 45 68 4C 7E
 (047.408919)  can0  RX - -  109   [8]  0F 16 5E 0B 8E E1 D5 AF
 (047.409054)  can0  RX - -  109   [7]  64 81 F3 4B B8 29 7E
 (047.431660)  can0  TX - -  108   [6]  06 16 05 79 06 7E
 (047.431795)  can0  RX - -  109   [8]  0B 17 57 8E E0 8F BD 4B
 (047.431957)  can0  RX - -  109   [8]  9A 0C 7E 05 17 EA 3E 7E
 (047.698428)  can0  RX - -  109   [8]  0F 17 5E 0A 8E E3 A9 E3
 (047.698566)  can0  RX - -  109   [7]  24 81 EF 50 51 CD 7E
 (047.708677)  can0  RX - -  109   [8]  0F 17 5E 0B 8E E3 B1 8C
 (047.708826)  can0  RX - -  109   [7]  64 81 F3 4D 55 75 7E
 (047.998938)  can0  RX - -  109   [8]  0F 17 5E 0A 8E E5 85 C0
 (047.999047)  can0  RX - -  109   [7]  24 81 EF 50 C0 C9 7E
 (048.009160)  can0  RX - -  109   [8]  0F 17 5E 0B 8E E5 8C E9
 (048.009283)  can0  RX - -  109   [7]  64 81 F3 4E 4A CB 7E
 (048.299420)  can0  RX - -  109   [8]  0F 17 5E 0A 8E E6 E1 9D
 (048.299527)  can0  RX - -  109   [7]  24 81 EF 4F 1E DA 7E
 (048.308404)  can0  RX - -  109   [8]  0F 17 5E 0B 8E E6 E8 C6
 (048.308534)  can0  RX - -  109   [7]  64 81 F3 4E 7F D5 7E
 (048.416161)  can0  TX - -  108   [6]  06 17 05 60 DE 7E
 (048.416299)  can0  RX - -  109   [8]  0B 18 57 8E E5 E0 CC 1F
 (048.416439)  can0  RX - -  109   [8]  5F 98 7E 05 18 12 C9 7E
 (048.599056)  can0  RX - -  109   [8]  0F 18 5E 0A 8E E8 BC FA
 (048.599175)  can0  RX - -  109   [7]  24 81 EF 49 05 50 7E
 (048.609291)  can0  RX - -  109   [8]  0F 18 5E 0B 8E E8 C4 A3
 (048.609419)  can0  RX - -  109   [7]  64 81 F3 50 2F 34 7E
 (048.899572)  can0  RX - -  109   [8]  0F 18 5E 0A 8E EA 98 D7
 (048.899683)  can0  RX - -  109   [7]  24 81 EF 4E CF 7D 7E
 (048.908567)  can0  RX - -  109   [8]  0F 18 5E 0B 8E EA A0 80
 (048.908751)  can0  RX - -  109   [7]  64 81 F3 4F 1A B9 7E
 (049.198795)  can0  RX - -  109   [8]  0F 18 5E 0A 8E EB F4 B4
 (049.198916)  can0  RX - -  109   [7]  24 81 EF 51 B2 E4 7E
 (049.209041)  can0  RX - -  109   [8]  0F 18 5E 0B 8E EB FB DD
 (049.209181)  can0  RX - -  109   [7]  64 81 F3 4F E1 3E 7E
 (049.400537)  can0  TX - -  108   [6]  06 18 05 E3 16 7E
 (049.400667)  can0  RX - -  109   [8]  0B 19 57 8E EB B1 DF 69
 (049.400784)  can0  RX - -  109   [8]  1E 78 7E 05 19 03 40 7E
 (049.498419)  can0  RX - -  109   [8]  0F 19 5E 0A 8E ED D0 91
 (049.498547)  can0  RX - -  109   [7]  24 81 EF 4D B6 5C 7E
 (049.508676)  can0  RX - -  109   [8]  0F 19 5E 0B 8E ED D7 BA
 (049.508809)  can0  RX - -  109   [7]  64 81 F3 4F C9 99 7E
 (049.718932)  can0  RX - -  109   [8]  0E 19 55 81 52 81 F5 74
 (049.719065)  can0  RX - -  109   [6]  83 F4 57 04 64 7E
 (049.799188)  can0  RX - -  109   [8]  0F 19 5E 0A 8E EF AB EE
 (049.799301)  can0  RX - -  109   [7]  24 81 EF 4B 73 FA 7E
 (049.809412)  can0  RX - -  109   [8]  0F 19 5E 0B 8E EF B3 97
 (049.809537)  can0  RX - -  109   [7]  64 81 F3 4F 75 DA 7E
 (050.098411)  can0  RX - -  109   [8]  0F 19 5E 0A 8E F1 87 CB
 (050.098534)  can0  RX - -  109   [7]  24 81 EF 50 1C 11 7E
 (050.108691)  can0  RX - -  109   [8]  0F 19 5E 0B 8E F1 8E F4
 (050.108789)  can0  RX - -  109   [7]  64 81 F3 4B 4E 66 7E
 (050.385157)  can0  TX - -  108   [6]  06 19 05 FA CE 7E
 (050.385412)  can0  RX - -  109   [8]  85 C1 7E 05 1A 31 DB 7E
 (050.385287)  can0  RX - -  109   [8]  0B 1A 57 8E F1 83 89 35
 (050.399273)  can0  RX - -  109   [8]  0F 1A 5E 0A 8E F2 E3 A8
 (050.399403)  can0  RX - -  109   [7]  24 81 EF 50 61 AE 7E
 (050.409533)  can0  RX - -  109   [8]  0F 1A 5E 0B 8E F2 EA D1
 (050.409653)  can0  RX - -  109   [7]  64 81 F3 4E 9E CE 7E
 (050.698554)  can0  RX - -  109   [8]  0F 1A 5E 0A 8E F4 BF 85
 (050.698673)  can0  RX - -  109   [7]  24 81 EF 49 D9 53 7E
 (050.708799)  can0  RX - -  109   [8]  0F 1A 5E 0B 8E F4 C6 AE
 (050.708964)  can0  RX - -  109   [7]  64 81 F3 4D 3F 03 7E
 (050.999050)  can0  RX - -  109   [8]  0F 1A 5E 0A 8E F6 9A E2
 (050.999171)  can0  RX - -  109   [7]  24 81 EF 52 40 32 7E
 (051.009280)  can0  RX - -  109   [8]  0F 1A 5E 0B 8E F6 A2 8B
 (051.009400)  can0  RX - -  109   [7]  64 81 F3 4F FA 72 7E
 (051.298309)  can0  RX - -  109   [8]  0F 1A 5E 0A 8E F7 F6 BF
 (051.298407)  can0  RX - -  109   [7]  24 81 EF 4E BA 59 7E
 (051.308534)  can0  RX - -  109   [8]  0F 1A 5E 0B 8E F7 FD E8
 (051.308684)  can0  RX - -  109   [7]  64 81 F3 4F A4 30 7E
 (051.370032)  can0  TX - -  108   [6]  06 1A 05 D0 A6 7E
 (051.370150)  can0  RX - -  109   [8]  0B 1B 57 8E F6 D4 95 16
 (051.370302)  can0  RX - -  109   [8]  6D 7B 7E 05 1B 20 52 7E
 (051.599162)  can0  RX - -  109   [8]  0F 1B 5E 0A 8E F9 D2 9C
 (051.599283)  can0  RX - -  109   [7]  24 81 EF 50 78 87 7E
 (051.609414)  can0  RX - -  109   [8]  0F 1B 5E 0B 8E F9 D9 C5
 (051.609525)  can0  RX - -  109   [7]  64 81 F3 4C CC 32 7E
 (051.898428)  can0  RX - -  109   [8]  0F 1B 5E 0A 8E FB AD F9
 (051.898551)  can0  RX - -  109   [7]  24 81 EF 50 30 53 7E
 (051.908672)  can0  RX - -  109   [8]  0F 1B 5E 0B 8E FB B5 A2
 (051.908901)  can0  RX - -  109   [7]  64 81 F3 50 06 4E 7E
 (052.198919)  can0  RX - -  109   [8]  0F 1B 5E 0A 8E FD 89 D6
 (052.199031)  can0  RX - -  109   [7]  24 81 EF 53 C5 A4 7E
 (052.209159)  can0  RX - -  109   [8]  0F 1B 5E 0B 8E FD 90 FF
 (052.209277)  can0  RX - -  109   [7]  64 81 F3 52 E5 60 7E
 (052.354407)  can0  TX - -  108   [6]  06 1B 05 C9 7E 7E
 (052.354531)  can0  RX - -  109   [8]  0B 1C 57 8E FC A5 8C 12
 (052.354660)  can0  RX - -  109   [8]  A8 64 7E 05 1C 54 ED 7E
 (052.498552)  can0  RX - -  109   [8]  0F 1C 5E 0A 8E FE E5 B3
 (052.498679)  can0  RX - -  109   [7]  24 81 EF 56 AB 23 7E
 (052.508786)  can0  RX - -  109   [8]  0F 1C 5E 0B 8E FE EC DC
 (052.508929)  can0  RX - -  109   [7]  64 81 F3 4F AF 24 7E
 (052.799062)  can0  RX - -  109   [8]  0F 1C 5E 0A 8F 80 C1 90
 (052.799165)  can0  RX - -  109   [7]  24 81 EF 50 30 56 7E
 (052.809285)  can0  RX - -  109   [8]  0F 1C 5E 0B 8F 80 C8 B9
 (052.809414)  can0  RX - -  109   [7]  64 81 F3 4E BA 54 7E
 (053.098301)  can0  RX - -  109   [8]  0F 1C 5E 0A 8F 82 9C ED
 (053.098427)  can0  RX - -  109   [7]  24 81 EF 4C C1 39 7E
 (053.108554)  can0  RX - -  109   [8]  0F 1C 5E 0B 8F 82 A4 96
 (053.108683)  can0  RX - -  109   [7]  64 81 F3 4C 12 D5 7E
 (053.338792)  can0  TX - -  108   [6]  06 1C 05 84 76 7E
 (053.339039)  can0  RX - -  109   [8]  AF B4 7E 05 1D 45 64 7E
 (053.338934)  can0  RX - -  109   [8]  0B 1D 57 8F 81 F6 A9 62
 (053.399152)  can0  RX - -  109   [8]  0F 1D 5E 0A 8F 83 F8 CA
 (053.399287)  can0  RX - -  109   [7]  24 81 EF 4F FE B6 7E
 (053.409395)  can0  RX - -  109   [8]  0F 1D 5E 0B 8F 83 FF F3
 (053.409528)  can0  RX - -  109   [7]  64 81 F3 4B 46 8D 7E
 (053.698417)  can0  RX - -  109   [8]  0F 1D 5E 0A 8F 85 D4 A7
 (053.698532)  can0  RX - -  109   [7]  24 81 EF 51 36 D7 7E
 (053.708638)  can0  RX - -  109   [8]  0F 1D 5E 0B 8F 85 DB D0
 (053.708755)  can0  RX - -  109   [7]  64 81 F3 4F B0 F5 7E
 (053.998903)  can0  RX - -  109   [8]  0F 1D 5E 0A 8F 87 B0 84
 (053.999027)  can0  RX - -  109   [7]  24 81 EF 4C 20 48 7E
 (054.009164)  can0  RX - -  109   [8]  0F 1D 5E 0B 8F 87 B7 AD
 (054.009317)  can0  RX - -  109   [7]  64 81 F3 4C 6A 17 7E
 (054.060643)  can0  TX - -  108   [8]  0F 1D 0F 0C AF 87 BD 9C
 (054.060759)  can0  TX - -  108   [7]  18 C9 9F 00 25 C8 7E
 (054.062142)  can0  RX - -  109   [5]  05 1E 77 FF 7E
 (054.299157)  can0  RX - -  109   [8]  0F 1E 5E 0A 8F 89 8B E1
 (054.299326)  can0  RX - -  109   [7]  24 81 EF 4B 41 77 7E
 (054.309390)  can0  RX - -  109   [8]  0F 1E 5E 0B 8F 89 93 8A
 (054.309537)  can0  RX - -  109   [7]  64 81 F3 4E F4 16 7E
 (054.323373)  can0  TX - -  108   [6]  06 1E 05 B7 C6 7E
 (054.323503)  can0  RX - -  109   [8]  0B 1F 57 8F 87 C7 BA 20
 (054.323625)  can0  RX - -  109   [8]  D1 08 7E 05 1F 66 76 7E
 (054.550019)  can0  TX - -  108   [8]  0F 1F 0F 08 AF 89 B6 AD
 (054.550140)  can0  TX - -  108   [7]  6D 87 A9 40 47 97 7E
 (054.550300)  can0  RX - -  109   [5]  05 10 9E 81 7E
 (054.599129)  can0  RX - -  109   [8]  0F 10 5E 0A 8F 8A E7 BE
 (054.599255)  can0  RX - -  109   [7]  24 81 EF 4F 4F 3B 7E
 (054.609376)  can0  RX - -  109   [8]  0F 10 5E 0B 8F 8A EE E7
 (054.609503)  can0  RX - -  109   [7]  64 81 F3 4F 29 35 7E
 (054.819635)  can0  RX - -  109   [8]  0E 10 55 81 5A 81 FC 17
 (054.819754)  can0  RX - -  109   [6]  83 F1 4B D6 9E 7E
 (054.898634)  can0  RX - -  109   [8]  0F 10 5E 0A 8F 8C C3 9B
 (054.898755)  can0  RX - -  109   [7]  24 81 EF 4C F6 64 7E
 (054.908876)  can0  RX - -  109   [8]  0F 10 5E 0B 8F 8C CA C4
 (054.909002)  can0  RX - -  109   [7]  64 81 F3 50 71 1F 7E
 (055.199131)  can0  RX - -  109   [8]  0F 10 5E 0A 8F 8E 9E F8
 (055.199254)  can0  RX - -  109   [7]  24 81 EF 53 E0 68 7E
 (055.209374)  can0  RX - -  109   [8]  0F 10 5E 0B 8F 8E A6 A1
 (055.209492)  can0  RX - -  109   [7]  64 81 F3 50 77 06 7E
 (055.308396)  can0  TX - -  108   [6]  06 10 05 2D D6 7E
 (055.308516)  can0  RX - -  109   [8]  0B 11 57 8F 8D 98 B8 61
 (055.308630)  can0  RX - -  109   [8]  22 9E 7E 05 11 8F 08 7E
 (055.498757)  can0  RX - -  109   [8]  0F 11 5E 0A 8F 8F FA D5
 (055.498873)  can0  RX - -  109   [7]  24 81 EF 50 93 4F 7E
 (055.509001)  can0  RX - -  109   [8]  0F 11 5E 0B 8F 90 81 FE
 (055.509117)  can0  RX - -  109   [7]  64 81 F3 51 86 D9 7E
 (055.799280)  can0  RX - -  109   [8]  0F 11 5E 0A 8F 91 D6 B2
 (055.799379)  can0  RX - -  109   [7]  24 81 EF 4D 4E 38 7E
 (055.808282)  can0  RX - -  109   [8]  0F 11 5E 0B 8F 91 DD DB
 (055.808389)  can0  RX - -  109   [7]  64 81 F3 4F D7 A3 7E
 (056.098506)  can0  RX - -  109   [8]  0F 11 5E 0A 8F 93 B2 8F
 (056.098626)  can0  RX - -  109   [7]  24 81 EF 50 8D 5F 7E
 (056.108758)  can0  RX - -  109   [8]  0F 11 5E 0B 8F 93 B9 B8
 (056.108871)  can0  RX - -  109   [7]  64 81 F3 4F CB 7A 7E
 (056.292756)  can0  TX - -  108   [6]  06 11 05 34 0E 7E
 (056.292883)  can0  RX - -  109   [8]  0B 12 57 8F 92 E9 F1 7D
 (056.293005)  can0  RX - -  109   [8]  6A 3F 7E 05 12 BD 93 7E
 (056.398128)  can0  RX - -  109   [8]  0F 12 5E 0A 8F 95 8D EC
 (056.398253)  can0  RX - -  109   [7]  24 81 EF 4D A6 63 7E
 (056.408375)  can0  RX - -  109   [8]  0F 12 5E 0B 8F 95 95 95
 (056.408492)  can0  RX - -  109   [7]  64 81 F3 4E D4 FC 7E
 (056.698628)  can0  RX - -  109   [8]  0F 12 5E 0A 8F 96 E9 C9
 (056.698751)  can0  RX - -  109   [7]  24 81 EF 54 52 95 7E
 (056.708882)  can0  RX - -  109   [8]  0F 12 5E 0B 8F 96 F0 F2
 (056.709001)  can0  RX - -  109   [7]  64 81 F3 4D 4C 50 7E
 (056.999135)  can0  RX - -  109   [8]  0F 12 5E 0A 8F 98 C5 A6
 (056.999262)  can0  RX - -  109   [7]  24 81 EF 4A 52 90 7E
 (057.008122)  can0  RX - -  109   [8]  0F 12 5E 0B 8F 98 CC CF
 (057.008240)  can0  RX - -  109   [7]  64 81 F3 4B F1 C6 7E
 (057.278365)  can0  TX - -  108   [6]  06 12 05 1E 66 7E
 (057.278495)  can0  RX - -  109   [8]  0B 13 57 8F 98 BB AF 38
 (057.278612)  can0  RX - -  109   [8]  43 51 7E 05 13 AC 1A 7E
 (057.298768)  can0  RX - -  109   [8]  0F 13 5E 0A 8F 9A A1 83
 (057.298940)  can0  RX - -  109   [7]  24 81 EF 50 5E B9 7E
 (057.309042)  can0  RX - -  109   [8]  0F 13 5E 0B 8F 9A A8 AC
 (057.309130)  can0  RX - -  109   [7]  64 81 F3 4B B8 8E 7E
 (057.599250)  can0  RX - -  109   [8]  0F 13 5E 0A 8F 9B FC E0
 (057.599374)  can0  RX - -  109   [7]  24 81 EF 53 3A 36 7E
 (057.608246)  can0  RX - -  109   [8]  0F 13 5E 0B 8F 9C 84 89
 (057.608368)  can0  RX - -  109   [7]  64 81 F3 45 FB 6C 7E
 (057.898539)  can0  RX - -  109   [8]  0F 13 5E 0A 8F 9D D8 BD
 (057.898662)  can0  RX - -  109   [7]  24 81 EF 4E 35 45 7E
 (057.908766)  can0  RX - -  109   [8]  0F 13 5E 0B 8F 9D DF E6
 (057.908902)  can0  RX - -  109   [7]  64 81 F3 40 95 1F 7E
 (058.199001)  can0  RX - -  109   [8]  0F 13 5E 0A 8F 9F B4 9A
 (058.199121)  can0  RX - -  109   [7]  24 81 EF 4C C7 E4 7E
 (058.209246)  can0  RX - -  109   [8]  0F 13 5E 0B 8F 9F BB C3
 (058.209365)  can0  RX - -  109   [7]  64 81 F3 34 46 DF 7E
 (058.260738)  can0  TX - -  108   [8]  0F 13 0F 0C AF 9F C1 B2
 (058.260876)  can0  TX - -  108   [7]  1B C9 9F 00 D7 21 7E
 (058.260992)  can0  RX - -  109   [5]  05 14 D8 A5 7E
 (058.262364)  can0  TX - -  108   [6]  06 14 05 4A B6 7E
 (058.262489)  can0  RX - -  109   [8]  0B 15 57 8F 9E 8C AF 12
 (058.262619)  can0  RX - -  109   [8]  D4 F5 7E 05 15 C9 2C 7E
 (058.499002)  can0  RX - -  109   [8]  0F 15 5E 0A 8F A1 8F F7
 (058.499123)  can0  RX - -  109   [7]  24 81 EF 51 9E AE 7E
 (058.509247)  can0  RX - -  109   [8]  0F 15 5E 0B 8F A1 97 A0
 (058.509367)  can0  RX - -  109   [7]  64 81 F3 30 AD 0C 7E
 (058.798293)  can0  RX - -  109   [8]  0F 15 5E 0A 8F A2 EB D4
 (058.798424)  can0  RX - -  109   [7]  24 81 EF 4B 63 5B 7E
 (058.808560)  can0  RX - -  109   [8]  0F 15 5E 0B 8F A2 F2 FD
 (058.808634)  can0  RX - -  109   [7]  64 81 F3 24 C9 E7 7E
 (059.098777)  can0  RX - -  109   [8]  0F 15 5E 0A 8F A4 C7 B1
 (059.098893)  can0  RX - -  109   [7]  24 81 EF 4F 4E C1 7E
 (059.109021)  can0  RX - -  109   [8]  0F 15 5E 0B 8F A4 CE DA
 (059.109137)  can0  RX - -  109   [7]  64 81 F3 20 71 67 7E
 (059.246767)  can0  TX - -  108   [6]  06 15 05 53 6E 7E
 (059.246903)  can0  RX - -  109   [8]  0B 16 57 8F A3 DD DB 4D
 (059.247024)  can0  RX - -  109   [8]  5F 0F 7E 05 16 FB B7 7E
 (059.398402)  can0  RX - -  109   [8]  0F 16 5E 0A 8F A6 A3 8E
 (059.398517)  can0  RX - -  109   [7]  24 81 EF 50 46 8F 7E
 (059.408639)  can0  RX - -  109   [8]  0F 16 5E 0B 8F A6 AA B7
 (059.408776)  can0  RX - -  109   [7]  64 81 F3 14 85 12 7E
 (059.698896)  can0  RX - -  109   [8]  0F 16 5E 0A 8F A7 FE EB
 (059.699018)  can0  RX - -  109   [7]  24 81 EF 4B 85 51 7E
 (059.709143)  can0  RX - -  109   [8]  0F 16 5E 0B 8F A8 86 94
 (059.709263)  can0  RX - -  109   [7]  64 81 F3 0A 33 05 7E
 (059.919406)  can0  RX - -  109   [8]  0E 16 55 81 56 81 F8 01
 (059.919512)  can0  RX - -  109   [6]  83 F3 11 E4 92 7E
 (059.998391)  can0  RX - -  109   [8]  0F 16 5E 0A 8F A9 DA C8
 (059.998533)  can0  RX - -  109   [7]  24 81 EF 4D 8E D7 7E
 (060.008642)  can0  RX - -  109   [8]  0F 16 5E 0B 8F A9 E1 F1
 (060.008754)  can0  RX - -  109   [7]  64 81 F3 01 0E 84 7E
 (060.231387)  can0  TX - -  108   [6]  06 16 05 79 06 7E
 (060.232768)  can0  RX - -  109   [8]  0B 17 57 8F A9 AF 86 64
 (060.232903)  can0  RX - -  109   [8]  F6 58 7E 05 17 EA 3E 7E
 (060.298037)  can0  RX - -  109   [8]  0F 17 5E 0A 8F AB B6 A5
 (060.298334)  can0  RX - -  109   [7]  24 81 EF 4F A4 6D 7E
 (060.308298)  can0  RX - -  109   [8]  0F 17 5E 0B 8F AB BD CE
 (060.308394)  can0  RX - -  109   [7]  64 81 F2 70 D8 C0 7E
 (060.598568)  can0  RX - -  109   [8]  0F 17 5E 0A 8F AD 92 82
 (060.598662)  can0  RX - -  109   [7]  24 81 EF 4C 0B BA 7E
 (060.608793)  can0  RX - -  109   [8]  0F 17 5E 0B 8F AD 99 AB
 (060.608990)  can0  RX - -  109   [7]  64 81 F2 62 A1 B5 7E
 (060.899011)  can0  RX - -  109   [8]  0F 17 5E 0A 8F AE ED DF
 (060.899164)  can0  RX - -  109   [7]  24 81 EF 4E 71 58 7E
 (060.908005)  can0  RX - -  109   [8]  0F 17 5E 0B 8F AE F5 88
 (060.908147)  can0  RX - -  109   [7]  64 81 F2 50 D0 52 7E
 (061.198245)  can0  RX - -  109   [8]  0F 17 5E 0A 8F B0 C9 BC
 (061.198362)  can0  RX - -  109   [7]  24 81 EF 4D 59 98 7E
 (061.208490)  can0  RX - -  109   [8]  0F 17 5E 0B 8F B0 D0 E5
 (061.208611)  can0  RX - -  109   [7]  64 81 F2 41 AE 92 7E
 (061.216233)  can0  TX - -  108   [6]  06 17 05 60 DE 7E
 (061.216362)  can0  RX - -  109   [8]  0B 18 57 8F AF 80 86 0F
 (061.216482)  can0  RX - -  109   [8]  30 1F 7E 05 18 12 C9 7E
 (061.499115)  can0  RX - -  109   [8]  0F 18 5E 0A 8F B2 A5 99
 (061.499249)  can0  RX - -  109   [7]  24 81 EF 54 0F AF 7E
 (061.508118)  can0  RX - -  109   [8]  0F 18 5E 0B 8F B2 AC C2
 (061.508241)  can0  RX - -  109   [7]  64 81 F2 2A FC 08 7E
 (061.798379)  can0  RX - -  109   [8]  0F 18 5E 0A 8F B4 80 F6
 (061.798493)  can0  RX - -  109   [7]  24 81 EF 4C 91 03 7E
 (061.808643)  can0  RX - -  109   [8]  0F 18 5E 0B 8F B4 88 9F
 (061.808770)  can0  RX - -  109   [7]  64 81 F2 1B 18 15 7E
 (062.098872)  can0  RX - -  109   [8]  0F 18 5E 0A 8F B5 DC D3
 (062.098983)  can0  RX - -  109   [7]  24 81 EF 48 7F A2 7E
 (062.109115)  can0  RX - -  109   [8]  0F 18 5E 0B 8F B5 E3 FC
 (062.109240)  can0  RX - -  109   [7]  64 81 F2 03 0D E2 7E
 (062.201860)  can0  TX - -  108   [6]  06 18 05 E3 16 7E
 (062.201988)  can0  RX - -  109   [8]  0B 19 57 8F B4 D1 CB 2F
 (062.202112)  can0  RX - -  109   [8]  A2 5D 7E 05 19 03 40 7E
 (062.398491)  can0  RX - -  109   [8]  0F 19 5E 0A 8F B7 B8 B0
 (062.398606)  can0  RX - -  109   [7]  24 81 EF 4D 61 47 7E
 (062.408739)  can0  RX - -  109   [8]  0F 19 5E 0B 8F B7 BF D9
 (062.408855)  can0  RX - -  109   [7]  64 81 F1 6A 8C 37 7E
 (062.461479)  can0  TX - -  108   [8]  0F 19 0F 0C AF B7 C5 C8
 (062.461607)  can0  TX - -  108   [7]  1B C9 9F 00 34 31 7E
 (062.461732)  can0  RX - -  109   [5]  05 1A 31 DB 7E
 (062.698114)  can0  RX - -  109   [8]  0F 1A 5E 0A 8F B9 94 8D
 (062.698237)  can0  RX - -  109   [7]  24 81 EF 50 CE 80 7E
 (062.708360)  can0  RX - -  109   [8]  0F 1A 5E 0B 8F B9 9B B6
 (062.708485)  can0  RX - -  109   [7]  64 81 F1 54 72 DB 7E
 (062.998619)  can0  RX - -  109   [8]  0F 1A 5E 0A 8F BA EF EA
 (062.998735)  can0  RX - -  109   [7]  24 81 EF 52 3C B7 7E
 (063.008864)  can0  RX - -  109   [8]  0F 1A 5E 0B 8F BA F7 93
 (063.008993)  can0  RX - -  109   [7]  64 81 F1 3E E6 69 7E
 (063.186605)  can0  TX - -  108   [6]  06 1A 05 D0 A6 7E
 (063.186739)  can0  RX - -  109   [8]  0B 1B 57 8F BA A3 85 36
 (063.186853)  can0  RX - -  109   [8]  5F F2 7E 05 1B 20 52 7E
 (063.298244)  can0  RX - -  109   [8]  0F 1B 5E 0A 8F BC CB C7
 (063.298369)  can0  RX - -  109   [7]  24 81 EF 52 B8 C2 7E
 (063.308502)  can0  RX - -  109   [8]  0F 1B 5E 0B 8F BC D2 F0
 (063.308617)  can0  RX - -  109   [7]  64 81 F1 1E E7 AF 7E
 (063.598743)  can0  RX - -  109   [8]  0F 1B 5E 0A 8F BE A7 A4
 (063.598865)  can0  RX - -  109   [7]  24 81 EF 4E 5F AE 7E
 (063.608982)  can0  RX - -  109   [8]  0F 1B 5E 0B 8F BE AE CD
 (063.609101)  can0  RX - -  109   [7]  64 81 F1 05 22 16 7E
 (063.898001)  can0  RX - -  109   [8]  0F 1B 5E 0A 8F C0 83 81
 (063.898123)  can0  RX - -  109   [7]  24 81 EF 4E 1B CA 7E
 (063.908259)  can0  RX - -  109   [8]  0F 1B 5E 0B 8F C0 8A AA
 (063.908385)  can0  RX - -  109   [7]  64 81 F0 61 8D 22 7E
 (064.170984)  can0  TX - -  108   [6]  06 1B 05 C9 7E 7E
 (064.171109)  can0  RX - -  109   [8]  0B 1C 57 8F BF F4 9B 08
 (064.171230)  can0  RX - -  109   [8]  2E 27 7E 05 1C 54 ED 7E
 (064.198854)  can0  RX - -  109   [8]  0F 1C 5E 0A 8F C1 DE DE
 (064.198977)  can0  RX - -  109   [7]  24 81 EF 4B 19 74 7E
 (064.209101)  can0  RX - -  109   [8]  0F 1C 5E 0B 8F C1 E6 87
 (064.209234)  can0  RX - -  109   [7]  64 81 F0 47 5C 85 7E
 (064.498115)  can0  RX - -  109   [8]  0F 1C 5E 0A 8F C3 BA BB
 (064.498236)  can0  RX - -  109   [7]  24 81 EF 4F 78 11 7E
 (064.508357)  can0  RX - -  109   [8]  0F 1C 5E 0B 8F C3 C1 E4
 (064.508478)  can0  RX - -  109   [7]  64 81 F0 24 1F 6D 7E
 (064.798624)  can0  RX - -  109   [8]  0F 1C 5E 0A 8F C5 96 98
 (064.798739)  can0  RX - -  109   [7]  24 81 EF 4D CA 07 7E
 (064.808890)  can0  RX - -  109   [8]  0F 1C 5E 0B 8F C5 9D C1
 (064.809013)  can0  RX - -  109   [7]  64 81 F0 03 25 4D 7E
 (065.019113)  can0  RX - -  109   [8]  0E 1C 55 81 56 81 F6 51
 (065.019236)  can0  RX - -  109   [6]  83 F0 70 39 BC 7E
 (065.098116)  can0  RX - -  109   [8]  0F 1C 5E 0A 8F C6 F1 F5
 (065.098232)  can0  RX - -  109   [7]  24 81 EF 4C 35 47 7E
 (065.108356)  can0  RX - -  109   [8]  0F 1C 5E 0B 8F C6 F9 9E
 (065.108477)  can0  RX - -  109   [7]  64 81 EF 60 42 64 7E
 (065.154857)  can0  TX - -  108   [6]  06 1C 05 84 76 7E
 (065.154982)  can0  RX - -  109   [8]  0B 1D 57 8F C5 C5 90 17
 (065.155104)  can0  RX - -  109   [8]  E7 B5 7E 05 1D 45 64 7E
 (065.398993)  can0  RX - -  109   [8]  0F 1D 5E 0A 8F C8 CD D2
 (065.399114)  can0  RX - -  109   [7]  24 81 EF 4E 63 8C 7E
 (065.407983)  can0  RX - -  109   [8]  0F 1D 5E 0B 8F C8 D4 FB
 (065.408104)  can0  RX - -  109   [7]  64 81 EF 41 96 07 7E
 (065.698282)  can0  RX - -  109   [8]  0F 1D 5E 0A 8F CA A9 AF
 (065.698385)  can0  RX - -  109   [7]  24 81 EF 45 14 7E 7E
 (065.708520)  can0  RX - -  109   [8]  0F 1D 5E 0B 8F CA B0 D8
 (065.708644)  can0  RX - -  109   [7]  64 81 EF 1E E1 8E 7E
 (065.998768)  can0  RX - -  109   [8]  0F 1D 5E 0A 8F CC 85 8C
 (065.998881)  can0  RX - -  109   [7]  24 81 EF 35 F6 FD 7E
 (066.009011)  can0  RX - -  109   [8]  0F 1D 5E 0B 8F CC 8C B5
 (066.009124)  can0  RX - -  109   [7]  64 81 EE 74 47 24 7E
 (066.140498)  can0  TX - -  108   [6]  06 1D 05 9D AE 7E
 (066.140628)  can0  RX - -  109   [8]  0B 1E 57 8F CB 96 DA 46
 (066.140771)  can0  RX - -  109   [8]  75 04 7E 05 1E 77 FF 7E
 (066.298390)  can0  RX - -  109   [8]  0F 1E 5E 0A 8F CD E0 E9
 (066.298504)  can0  RX - -  109   [7]  24 81 EF 46 C2 56 7E
 (066.308639)  can0  RX - -  109   [8]  0F 1E 5E 0B 8F CD E8 92
 (066.308760)  can0  RX - -  109   [7]  64 81 EE 4D 4D 50 7E
 (066.599042)  can0  RX - -  109   [8]  0F 1E 5E 0A 8F CF BC C6
 (066.599174)  can0  RX - -  109   [7]  24 81 EF 49 76 E2 7E
 (066.608016)  can0  RX - -  109   [8]  0F 1E 5E 0B 8F CF C3 EF
 (066.608126)  can0  RX - -  109   [7]  64 81 EE 1F CA BE 7E
 (066.660740)  can0  TX - -  108   [8]  0F 1E 0F 0C AF CF C9 DE
 (066.660887)  can0  TX - -  108   [7]  1C C9 9F 00 B2 7A 7E
 (066.660991)  can0  RX - -  109   [5]  05 1F 66 76 7E
 (066.898650)  can0  RX - -  109   [8]  0F 1F 5E 0A 8F D1 98 A3
 (066.898867)  can0  RX - -  109   [7]  24 81 EF 4B 21 A2 7E
 (066.908872)  can0  RX - -  109   [8]  0F 1F 5E 0B 8F D1 9F CC
 (066.908995)  can0  RX - -  109   [7]  64 81 ED 7C DB FA 7E
 (067.124120)  can0  TX - -  108   [6]  06 1F 05 AE 1E 7E
 (067.124235)  can0  RX - -  109   [8]  0B 10 57 8F D0 E7 BD 7C
 (067.124368)  can0  RX - -  109   [8]  9C 11 7E 05 10 9E 81 7E
 (067.198236)  can0  RX - -  109   [8]  0F 10 5E 0A 8F D2 F4 80
 (067.198359)  can0  RX - -  109   [7]  24 81 EF 4C 2A 27 7E
 (067.208478)  can0  RX - -  109   [8]  0F 10 5E 0B 8F D2 FB A9
 (067.208604)  can0  RX - -  109   [7]  64 81 ED 4D 5F 28 7E
 (067.498732)  can0  RX - -  109   [8]  0F 10 5E 0A 8F D4 CF DD
 (067.498855)  can0  RX - -  109   [7]  24 81 EF 4D 80 80 7E
 (067.508978)  can0  RX - -  109   [8]  0F 10 5E 0B 8F D4 D7 86
 (067.509097)  can0  RX - -  109   [7]  64 81 ED 1D EB 99 7E
 (067.797997)  can0  RX - -  109   [8]  0F 10 5E 0A 8F D6 AB BA
 (067.798115)  can0  RX - -  109   [7]  24 81 EF 4D B1 49 7E
 (067.808226)  can0  RX - -  109   [8]  0F 10 5E 0B 8F D6 B2 E3
 (067.808355)  can0  RX - -  109   [7]  64 81 EC 6C B3 25 7E
 (068.098485)  can0  RX - -  109   [8]  0F 10 5E 0A 8F D8 87 97
 (068.098607)  can0  RX - -  109   [7]  24 81 EF 4E AD 82 7E
 (068.108722)  can0  RX - -  109   [8]  0F 10 5E 0B 8F D8 8E C0
 (068.108847)  can0  RX - -  109   [7]  64 81 EC 42 76 01 7E
 (068.108972)  can0  TX - -  108   [6]  06 10 05 2D D6 7E
 (068.109096)  can0  RX - -  109   [8]  0B 11 57 8F D6 B8 E7 66
 (068.109227)  can0  RX - -  109   [8]  10 26 7E 05 11 8F 08 7E
 (068.398107)  can0  RX - -  109   [8]  0F 11 5E 0A 8F D9 E2 F4
 (068.398228)  can0  RX - -  109   [7]  24 81 EF 4C 6B 9D 7E
 (068.408346)  can0  RX - -  109   [8]  0F 11 5E 0B 8F D9 EA 9D
 (068.408474)  can0  RX - -  109   [7]  64 81 EC 0F BB AF 7E
 (068.698602)  can0  RX - -  109   [8]  0F 11 5E 0A 8F DB BE D1
 (068.698728)  can0  RX - -  109   [7]  24 81 EF 4E 48 64 7E
 (068.708858)  can0  RX - -  109   [8]  0F 11 5E 0B 8F DB C5 FA
 (068.708972)  can0  RX - -  109   [7]  64 81 EB 5D 99 0D 7E
 (068.997861)  can0  RX - -  109   [8]  0F 11 5E 0A 8F DD 9A AE
 (068.997977)  can0  RX - -  109   [7]  24 81 EF 4E FA 6A 7E
 (069.008096)  can0  RX - -  109   [8]  0F 11 5E 0B 8F DD A1 D7
 (069.008223)  can0  RX - -  109   [7]  64 81 EB 25 B5 F7 7E
 (069.094614)  can0  TX - -  108   [6]  06 11 05 34 0E 7E
 (069.094729)  can0  RX - -  109   [8]  0B 12 57 8F DC 8A A3 1F
 (069.094845)  can0  RX - -  109   [8]  98 B0 7E 05 12 BD 93 7E
 (069.298742)  can0  RX - -  109   [8]  0F 12 5E 0A 8F DE F6 8B
 (069.298875)  can0  RX - -  109   [7]  24 81 EF 49 28 88 7E
 (069.307735)  can0  RX - -  109   [8]  0F 12 5E 0B 8F DE FD B4
 (069.307849)  can0  RX - -  109   [7]  64 81 EA 74 74 14 7E
 (069.598027)  can0  RX - -  109   [8]  0E 12 5E 0A E0 D1 E8 24
 (069.598131)  can0  RX - -  109   [6]  81 EF 47 32 C8 7E
 (069.608228)  can0  RX - -  109   [8]  0E 12 5E 0B E0 D9 91 64
 (069.608359)  can0  RX - -  109   [6]  81 EA 41 DB 81 7E
 (069.898481)  can0  RX - -  109   [8]  0E 12 5E 0A E2 AD C5 24
 (069.898611)  can0  RX - -  109   [6]  81 EF 4C 53 B0 7E
 (069.908745)  can0  RX - -  109   [8]  0E 12 5E 0B E2 B4 EE 64
 (069.908887)  can0  RX - -  109   [6]  81 EA 08 FE 9E 7E
 (070.081490)  can0  TX - -  108   [6]  06 12 05 1E 66 7E
 (070.081631)  can0  RX - -  109   [8]  0A 13 57 E1 DC FD 1F 37
 (070.081790)  can0  RX - -  109   [7]  30 7E 05 13 AC 1A 7E
 (070.081851)  can0  RX - -  109   [8]  0E 13 55 81 56 81 FB 3F
 (070.081988)  can0  RX - -  109   [6]  83 F9 21 4B A6 7E
 (070.198359)  can0  RX - -  109   [8]  0E 13 5E 0A E4 89 A2 24
 (070.198464)  can0  RX - -  109   [6]  81 EF 4F 11 62 7E
 (070.208601)  can0  RX - -  109   [8]  0E 13 5E 0B E4 90 CB 64
 (070.208721)  can0  RX - -  109   [6]  81 E9 4F 45 AE 7E
 (070.498852)  can0  RX - -  109   [8]  0E 13 5E 0A E5 E4 FF 24
 (070.498970)  can0  RX - -  109   [6]  81 EF 4A 62 62 7E
 (070.507844)  can0  RX - -  109   [8]  0E 13 5E 0B E5 EC A8 64
 (070.507972)  can0  RX - -  109   [6]  81 E9 16 5D B5 7E
 (070.798109)  can0  RX - -  109   [8]  0E 13 5E 0A E7 C0 DC 24
 (070.798225)  can0  RX - -  109   [6]  81 EF 4D C9 F7 7E
 (070.808352)  can0  RX - -  109   [8]  0E 13 5E 0B E7 C8 85 64
 (070.808474)  can0  RX - -  109   [6]  81 E8 59 40 0C 7E
 (070.861091)  can0  TX - -  108   [8]  0F 13 0F 0C AF E7 CD F4
 (070.861215)  can0  TX - -  108   [7]  1A C9 9F 00 CF 74 7E
 (070.861341)  can0  RX - -  109   [5]  05 14 D8 A5 7E
 (071.065220)  can0  TX - -  108   [6]  06 14 05 4A B6 7E
 (071.066595)  can0  RX - -  109   [8]  0A 15 57 E7 AE A6 52 FF
 (071.066721)  can0  RX - -  109   [7]  8E 7E 05 15 C9 2C 7E
 (071.098119)  can0  RX - -  109   [8]  0E 15 5E 0A E9 9C B9 24
 (071.098239)  can0  RX - -  109   [6]  81 EF 48 06 DB 7E
 (071.108354)  can0  RX - -  109   [8]  0E 15 5E 0B E9 A3 E2 64
 (071.108473)  can0  RX - -  109   [6]  81 E8 1B 74 12 7E
 (071.398599)  can0  RX - -  109   [8]  0E 15 5E 0A EA F8 96 24
 (071.398719)  can0  RX - -  109   [6]  81 EF 52 8C 1E 7E
 (071.408848)  can0  RX - -  109   [8]  0E 15 5E 0B EA FF BF 64
 (071.408970)  can0  RX - -  109   [6]  81 E7 5C 11 8C 7E
 (071.697856)  can0  RX - -  109   [8]  0E 15 5E 0A EC D3 F3 24
 (071.697984)  can0  RX - -  109   [6]  81 EF 4A 67 B8 7E
 (071.708097)  can0  RX - -  109   [8]  0E 15 5E 0B EC DB 9C 64
 (071.708216)  can0  RX - -  109   [6]  81 E7 20 18 3B 7E
 (071.998387)  can0  RX - -  109   [8]  0E 15 5E 0A EE AF D0 24
 (071.998514)  can0  RX - -  109   [6]  81 EF 4A D9 AB 7E
 (072.008624)  can0  RX - -  109   [8]  0E 15 5E 0B EE B6 F9 64
 (072.008764)  can0  RX - -  109   [6]  81 E6 61 50 5C 7E
 (072.050114)  can0  TX - -  108   [6]  06 15 05 53 6E 7E
 (072.050253)  can0  RX - -  109   [8]  0A 16 57 EC FF C1 21 83
 (072.050374)  can0  RX - -  109   [7]  98 7E 05 16 FB B7 7E
 (072.297995)  can0  RX - -  109   [8]  0E 16 5E 0A F0 8B AD 24
 (072.298126)  can0  RX - -  109   [6]  81 EF 48 41 73 7E
 (072.308241)  can0  RX - -  109   [8]  0E 16 5E 0B F0 92 D6 64
 (072.308362)  can0  RX - -  109   [6]  81 E6 1D 31 97 7E
 (072.598494)  can0  RX - -  109   [8]  0E 16 5E 0A F1 E7 8A 24
 (072.598621)  can0  RX - -  109   [6]  81 EF 4A 1B BC 7E
 (072.608728)  can0  RX - -  109   [8]  0E 16 5E 0B F1 EE B3 64
 (072.608852)  can0  RX - -  109   [6]  81 E5 5C A4 B5 7E
 (072.897728)  can0  RX - -  109   [8]  0E 16 5E 0A F3 C2 E7 24
 (072.897851)  can0  RX - -  109   [6]  81 EF 4B 71 AE 7E
 (072.907989)  can0  RX - -  109   [8]  0E 16 5E 0B F3 CA 90 64
 (072.908142)  can0  RX - -  109   [6]  81 E5 1B 4D 24 7E
 (073.034461)  can0  TX - -  108   [6]  06 16 05 79 06 7E
 (073.034595)  can0  RX - -  109   [8]  0A 17 57 F2 D0 B9 23 BE
 (073.034708)  can0  RX - -  109   [7]  BA 7E 05 17 EA 3E 7E
 (073.198598)  can0  RX - -  109   [8]  0E 17 5E 0A F5 9E C4 24
 (073.198725)  can0  RX - -  109   [6]  81 EF 49 2A 9E 7E
 (073.207593)  can0  RX - -  109   [8]  0E 17 5E 0B F5 A5 ED 64
 (073.207716)  can0  RX - -  109   [6]  81 E4 54 49 5A 7E
 (073.497844)  can0  RX - -  109   [8]  0E 17 5E 0A F6 FA A1 24
 (073.497973)  can0  RX - -  109   [6]  81 EF 4C C5 A7 7E
 (073.508090)  can0  RX - -  109   [8]  0E 17 5E 0B F7 81 CA 64
 (073.508217)  can0  RX - -  109   [6]  81 E4 0E 46 BF 7E
 (073.798353)  can0  RX - -  109   [8]  0E 17 5E 0A F8 D5 FE 24
 (073.798465)  can0  RX - -  109   [6]  81 EF 48 A2 D5 7E
 (073.808588)  can0  RX - -  109   [8]  0E 17 5E 0B F8 DD A7 64
 (073.808721)  can0  RX - -  109   [6]  81 E3 4A BA 31 7E
 (074.020086)  can0  TX - -  108   [6]  06 17 05 60 DE 7E
 (074.020214)  can0  RX - -  109   [8]  0A 18 57 F8 A1 E8 63 0D
 (074.020336)  can0  RX - -  109   [7]  B2 7E 05 18 12 C9 7E
 (074.097979)  can0  RX - -  109   [8]  0E 18 5E 0A FA B1 DB 24
 (074.098097)  can0  RX - -  109   [6]  81 EF 44 23 06 7E
 (074.108236)  can0  RX - -  109   [8]  0E 18 5E 0B FA B9 84 64
 (074.108346)  can0  RX - -  109   [6]  81 E3 05 70 E5 7E
 (074.398479)  can0  RX - -  109   [8]  0E 18 5E 0A FC 8D B8 24
 (074.398598)  can0  RX - -  109   [6]  81 EF 4B C9 67 7E
 (074.408712)  can0  RX - -  109   [8]  0E 18 5E 0B FC 94 E1 64
 (074.408836)  can0  RX - -  109   [6]  81 E2 3F 98 71 7E
 (074.697720)  can0  RX - -  109   [8]  0E 18 5E 0A FD E9 95 24
 (074.697839)  can0  RX - -  109   [6]  81 EF 4A CC C3 7E
 (074.707973)  can0  RX - -  109   [8]  0E 18 5E 0B FD F0 BE 64
 (074.708090)  can0  RX - -  109   [6]  81 E1 6E E6 43 7E
 (074.998220)  can0  RX - -  109   [8]  0E 18 5E 0A FF C4 F2 24
 (074.998341)  can0  RX - -  109   [6]  81 EF 4C BF 9E 7E
 (075.003459)  can0  TX - -  108   [6]  06 18 05 E3 16 7E
 (075.004836)  can0  RX - -  109   [8]  0A 19 57 FD F2 ED 4B D8
 (075.004961)  can0  RX - -  109   [7]  BB 7E 05 19 03 40 7E
 (075.007582)  can0  RX - -  109   [8]  0E 19 5E 0B FF CC 9B 64
 (075.007707)  can0  RX - -  109   [6]  81 E1 21 F7 CD 7E
 (075.060332)  can0  TX - -  108   [8]  0F 19 0F 0C AF FF D2 8A
 (075.060460)  can0  TX - -  108   [7]  1B C9 9F 00 A4 10 7E
 (075.060582)  can0  RX - -  109   [5]  05 1A 31 DB 7E
 (075.118222)  can0  RX - -  109   [8]  0E 1A 55 81 5C 81 F5 66
 (075.118338)  can0  RX - -  109   [6]  83 D4 00 09 F2 7E
 (075.298467)  can0  RX - -  109   [8]  0E 1A 5E 0A 81 A0 CF 24
 (075.298589)  can0  RX - -  109   [6]  81 EF 43 B7 F2 7E
 (075.308721)  can0  RX - -  109   [8]  0E 1A 5E 0B 81 A7 F8 64
 (075.308853)  can0  RX - -  109   [6]  81 E0 5A D6 AE 7E
 (075.597794)  can0  RX - -  109   [8]  0E 1A 5E 0A 82 FC AC 24
 (075.597838)  can0  RX - -  109   [6]  81 EF 48 6C A5 7E
 (075.607987)  can0  RX - -  109   [8]  0E 1A 5E 0B 83 83 D5 64
 (075.608104)  can0  RX - -  109   [6]  81 E0 0B 2B 30 7E
 (075.898222)  can0  RX - -  109   [8]  0E 1A 5E 0A 84 D8 89 24
 (075.898355)  can0  RX - -  109   [6]  81 EF 4A C4 73 7E
 (075.908478)  can0  RX - -  109   [8]  0E 1A 5E 0B 84 DF B2 64
 (075.908622)  can0  RX - -  109   [6]  81 DF 78 78 A4 7E
 (075.988709)  can0  TX - -  108   [6]  06 1A 05 D0 A6 7E
 (075.988834)  can0  RX - -  109   [8]  0A 1B 57 83 C4 A5 17 64
 (075.988961)  can0  RX - -  109   [7]  D2 7E 05 1B 20 52 7E
 (076.197859)  can0  RX - -  109   [8]  0E 1B 5E 0A 86 B3 E6 24
 (076.197967)  can0  RX - -  109   [6]  81 EF 44 57 4A 7E
 (076.208088)  can0  RX - -  109   [8]  0E 1B 5E 0B 86 BB 8F 64
 (076.208215)  can0  RX - -  109   [6]  81 DF 3B 2C 1F 7E
 (076.498347)  can0  RX - -  109   [8]  0E 1B 5E 0A 88 8F C3 24
 (076.498458)  can0  RX - -  109   [6]  81 EF 44 61 8A 7E
 (076.508588)  can0  RX - -  109   [8]  0E 1B 5E 0B 88 96 EC 64
 (076.508706)  can0  RX - -  109   [6]  81 DE 68 DF 38 7E
 (076.797604)  can0  RX - -  109   [8]  0E 1B 5E 0A 89 EB A0 24
 (076.797711)  can0  RX - -  109   [6]  81 EF 4C 59 75 7E
 (076.807833)  can0  RX - -  109   [8]  0E 1B 5E 0B 89 F2 C9 64
 (076.807963)  can0  RX - -  109   [6]  81 DE 17 1A 45 7E
 (076.973082)  can0  TX - -  108   [6]  06 1B 05 C9 7E 7E
 (076.973207)  can0  RX - -  109   [8]  0A 1C 57 89 95 9B 14 63
 (076.973329)  can0  RX - -  109   [7]  BB 7E 05 1C 54 ED 7E
 (077.098482)  can0  RX - -  109   [8]  0E 1C 5E 0A 8B C6 FD 24
 (077.098644)  can0  RX - -  109   [6]  81 EF 47 AD 41 7E
 (077.107476)  can0  RX - -  109   [8]  0E 1C 5E 0B 8B CE A6 64
 (077.107656)  can0  RX - -  109   [6]  81 DD 47 AC 8D 7E
 (077.397720)  can0  RX - -  109   [8]  0E 1C 5E 0A 8D A2 DA 24
 (077.397836)  can0  RX - -  109   [6]  81 EF 42 65 71 7E
 (077.407957)  can0  RX - -  109   [8]  0E 1C 5E 0B 8D AA 83 64
 (077.408085)  can0  RX - -  109   [6]  81 DC 6F 91 0A 7E
 (077.698233)  can0  RX - -  109   [8]  0E 1C 5E 0A 8E FE B7 24
 (077.698353)  can0  RX - -  109   [6]  81 EF 4A ED 05 7E
 (077.708469)  can0  RX - -  109   [8]  0E 1C 5E 0B 8F 85 E0 64
 (077.708597)  can0  RX - -  109   [6]  81 DC 1A 86 0D 7E
 (077.958735)  can0  TX - -  108   [6]  06 1C 05 84 76 7E
 (077.958871)  can0  RX - -  109   [8]  0A 1D 57 8E E7 83 1D C3
 (077.958980)  can0  RX - -  109   [7]  41 7E 05 1D 45 64 7E
 (077.997831)  can0  RX - -  109   [8]  0E 1D 5E 0A 90 DA 94 24
 (077.997957)  can0  RX - -  109   [6]  81 EF 48 39 49 7E
 (078.008081)  can0  RX - -  109   [8]  0E 1D 5E 0B 90 E1 BD 64
 (078.008204)  can0  RX - -  109   [6]  81 DB 49 B5 0A 7E
 (078.298334)  can0  RX - -  109   [8]  0E 1D 5E 0A 92 B5 F1 24
 (078.298461)  can0  RX - -  109   [6]  81 EF 44 F9 41 7E
 (078.308581)  can0  RX - -  109   [8]  0E 1D 5E 0B 92 BD 9A 64
 (078.308697)  can0  RX - -  109   [6]  81 DA 70 16 F3 7E
 (078.597783)  can0  RX - -  109   [8]  0E 1D 5E 0A 94 91 CE 24
 (078.597830)  can0  RX - -  109   [6]  81 EF 46 A9 7F 7E
 (078.607980)  can0  RX - -  109   [8]  0E 1D 5E 0B 94 98 F7 64
 (078.608155)  can0  RX - -  109   [6]  81 DA 17 15 A7 7E
 (078.898226)  can0  RX - -  109   [8]  0E 1D 5E 0A 95 ED AB 24
 (078.898344)  can0  RX - -  109   [6]  81 EF 48 AC C6 7E
 (078.908482)  can0  RX - -  109   [8]  0E 1D 5E 0B 95 F4 D4 64
 (078.908617)  can0  RX - -  109   [6]  81 D9 40 4D 38 7E
 (078.943702)  can0  TX - -  108   [6]  06 1D 05 9D AE 7E
 (078.943832)  can0  RX - -  109   [8]  0A 1E 57 94 B8 8D 53 28
 (078.943953)  can0  RX - -  109   [7]  7D 7E 05 1E 77 FF 7E
 (079.197842)  can0  RX - -  109   [8]  0E 1E 5E 0A 97 C9 88 24
 (079.197962)  can0  RX - -  109   [6]  81 EF 47 FF 72 7E
 (079.208081)  can0  RX - -  109   [8]  0E 1E 5E 0B 97 D0 B1 64
 (079.208200)  can0  RX - -  109   [6]  81 D8 64 62 3F 7E
 (079.260833)  can0  TX - -  108   [8]  0F 1E 0F 0C B0 97 D6 A0
 (079.260954)  can0  TX - -  108   [7]  1C C9 9F 00 FF E1 7E
 (079.261074)  can0  RX - -  109   [5]  05 1F 66 76 7E
 (079.497456)  can0  RX - -  109   [8]  0E 1F 5E 0A 99 A4 E5 24
 (079.497577)  can0  RX - -  109   [6]  81 EF 42 6D 70 7E
 (079.507709)  can0  RX - -  109   [8]  0E 1F 5E 0B 99 AC 8E 64
 (079.507830)  can0  RX - -  109   [6]  81 D8 0B 19 10 7E
 (079.797978)  can0  RX - -  109   [8]  0E 1F 5E 0A 9B 80 C2 24
 (079.798097)  can0  RX - -  109   [6]  81 EF 43 8E C3 7E
 (079.808206)  can0  RX - -  109   [8]  0E 1F 5E 0B 9B 87 EB 64
 (079.808328)  can0  RX - -  109   [6]  81 D7 29 80 D1 7E
 (079.927199)  can0  TX - -  108   [6]  06 1F 05 AE 1E 7E
 (079.927329)  can0  RX - -  109   [8]  0A 10 57 9A 88 FF 5D 13
 (079.927449)  can0  RX - -  109   [7]  39 7E 05 10 9E 81 7E
 (080.097599)  can0  RX - -  109   [8]  0E 10 5E 0A 9C DC 9F 24
 (080.097719)  can0  RX - -  109   [6]  81 EF 46 CB 29 7E
 (080.107863)  can0  RX - -  109   [8]  0E 10 5E 0B 9C E3 C8 64
 (080.107956)  can0  RX - -  109   [6]  81 D6 4F 1F BD 7E
 (080.118097)  can0  RX - -  109   [8]  0E 10 55 81 55 81 EE 1D
 (080.118215)  can0  RX - -  109   [6]  83 BE 78 77 BA 7E
 (080.398334)  can0  RX - -  109   [8]  0E 10 5E 0A 9E B7 FC 24
 (080.398458)  can0  RX - -  109   [6]  81 EF 48 03 07 7E
 (080.408582)  can0  RX - -  109   [8]  0E 10 5E 0B 9E BF A5 64
 (080.408704)  can0  RX - -  109   [6]  81 D5 6E 9E B7 7E
 (080.697586)  can0  RX - -  109   [8]  0E 10 5E 0A A0 93 D9 24
 (080.697704)  can0  RX - -  109   [6]  81 EF 45 5B 80 7E
 (080.707827)  can0  RX - -  109   [8]  0E 10 5E 0B A0 9B 82 64
 (080.707959)  can0  RX - -  109   [6]  81 D5 10 91 A4 7E
 (080.911836)  can0  TX - -  108   [6]  06 10 05 2D D6 7E
 (080.912083)  can0  RX - -  109   [7]  D8 7E 05 11 8F 08 7E
 (080.911963)  can0  RX - -  109   [8]  0A 11 57 9F DA 91 6D 81
 (080.998459)  can0  RX - -  109   [8]  0E 11 5E 0A A1 EF B6 24
 (080.998579)  can0  RX - -  109   [6]  81 EF 42 A3 77 7E
 (081.007445)  can0  RX - -  109   [8]  0E 11 5E 0B A1 F6 DF 64
 (081.007574)  can0  RX - -  109   [6]  81 D4 30 A1 F4 7E
 (081.297712)  can0  RX - -  109   [8]  0E 11 5E 0A A3 CB 93 24
 (081.297827)  can0  RX - -  109   [6]  81 EF 46 01 E1 7E
 (081.307959)  can0  RX - -  109   [8]  0E 11 5E 0B A3 D2 BC 64
 (081.308076)  can0  RX - -  109   [6]  81 D3 51 80 7B 7E
 (081.598207)  can0  RX - -  109   [8]  0E 11 5E 0A A5 A6 F0 24
 (081.598321)  can0  RX - -  109   [6]  81 EF 42 11 19 7E
 (081.608486)  can0  RX - -  109   [8]  0E 11 5E 0B A5 AE 99 64
 (081.608695)  can0  RX - -  109   [6]  81 D2 6E BA 2A 7E
 (081.896207)  can0  TX - -  108   [6]  06 11 05 34 0E 7E
 (081.896334)  can0  RX - -  109   [8]  0A 12 57 A5 AB 96 64 17
 (081.896447)  can0  RX - -  109   [7]  34 7E 05 12 BD 93 7E
 (081.897853)  can0  RX - -  109   [8]  0E 12 5E 0A A7 82 CD 24
 (081.897966)  can0  RX - -  109   [6]  81 EF 49 D1 71 7E
 (081.908095)  can0  RX - -  109   [8]  0E 12 5E 0B A7 89 F6 64
 (081.908214)  can0  RX - -  109   [6]  81 D2 0D FA 9B 7E
 (082.198331)  can0  RX - -  109   [8]  0E 12 5E 0A A8 DE AA 24
 (082.198448)  can0  RX - -  109   [6]  81 EF 40 B5 BE 7E
 (082.207325)  can0  RX - -  109   [8]  0E 12 5E 0B A8 E5 D3 64
 (082.207450)  can0  RX - -  109   [6]  81 D1 26 A6 56 7E
 (082.497576)  can0  RX - -  109   [8]  0E 12 5E 0A AA BA 87 24
 (082.497713)  can0  RX - -  109   [6]  81 EF 46 6C CB 7E
 (082.507828)  can0  RX - -  109   [8]  0E 12 5E 0B AA C1 B0 64
 (082.507950)  can0  RX - -  109   [6]  81 D0 48 2B FE 7E
 (082.798085)  can0  RX - -  109   [8]  0E 12 5E 0A AC 95 E4 24
 (082.798199)  can0  RX - -  109   [6]  81 EF 49 C8 67 7E
 (082.808321)  can0  RX - -  109   [8]  0E 12 5E 0B AC 9D 8D 64
 (082.808445)  can0  RX - -  109   [6]  81 CF 60 11 10 7E
 (082.881100)  can0  TX - -  108   [6]  06 12 05 1E 66 7E
 (082.881215)  can0  RX - -  109   [8]  0A 13 57 AA FC BA 23 12
 (082.881322)  can0  RX - -  109   [7]  28 7E 05 13 AC 1A 7E
 (083.097750)  can0  RX - -  109   [8]  0E 13 5E 0A AD F1 C1 24
 (083.097859)  can0  RX - -  109   [6]  81 EF 46 52 BA 7E
 (083.108010)  can0  RX - -  109   [8]  0E 13 5E 0B AD F8 EA 64
 (083.108099)  can0  RX - -  109   [6]  81 CE 7E 40 9C 7E
 (083.398377)  can0  RX - -  109   [8]  0E 13 5E 0A AF CD 9E 24
 (083.398649)  can0  RX - -  109   [6]  81 EF 42 CA 9F 7E
 (083.407370)  can0  RX - -  109   [8]  0E 13 5E 0B AF D4 C7 64
 (083.407494)  can0  RX - -  109   [6]  81 CE 13 67 B5 7E
 (083.460102)  can0  TX - -  108   [8]  0F 13 0F 0C B0 AF DA B6
 (083.460224)  can0  TX - -  108   [7]  18 C9 9F 00 8C E9 7E
 (083.461615)  can0  RX - -  109   [5]  05 14 D8 A5 7E
 (083.698000)  can0  RX - -  109   [8]  0E 14 5E 0A B1 A8 FB 24
 (083.698125)  can0  RX - -  109   [6]  81 EF 41 1B C8 7E
 (083.708230)  can0  RX - -  109   [8]  0E 14 5E 0B B1 B0 A4 64
 (083.708360)  can0  RX - -  109   [6]  81 CD 2A 3D E0 7E
 (083.866019)  can0  TX - -  108   [6]  06 14 05 4A B6 7E
 (083.866124)  can0  RX - -  109   [8]  0A 15 57 B0 CD C7 1C 40
 (083.866232)  can0  RX - -  109   [7]  67 7E 05 15 C9 2C 7E
 (083.997593)  can0  RX - -  109   [8]  0E 15 5E 0A B3 84 D8 24
 (083.997712)  can0  RX - -  109   [6]  81 EF 42 FB 06 7E
 (084.007837)  can0  RX - -  109   [8]  0E 15 5E 0B B3 8C 81 64
 (084.007962)  can0  RX - -  109   [6]  81 CC 47 37 A6 7E
 (084.298081)  can0  RX - -  109   [8]  0E 15 5E 0A B4 E0 B5 24
 (084.298198)  can0  RX - -  109   [6]  81 EF 43 67 4D 7E
 (084.308323)  can0  RX - -  109   [8]  0E 15 5E 0B B4 E7 DE 64
 (084.308447)  can0  RX - -  109   [6]  81 CB 5B D2 51 7E
 (084.597331)  can0  RX - -  109   [8]  0E 15 5E 0A B6 BC 92 24
 (084.597443)  can0  RX - -  109   [6]  81 EF 48 CF FD 7E
 (084.607581)  can0  RX - -  109   [8]  0E 15 5E 0B B6 C3 BB 64
 (084.607689)  can0  RX - -  109   [6]  81 CA 71 60 41 7E
 (084.850317)  can0  TX - -  108   [6]  06 15 05 53 6E 7E
 (084.850442)  can0  RX - -  109   [8]  0A 16 57 B6 9E A5 0E 0E
 (084.850569)  can0  RX - -  109   [7]  71 7E 05 16 FB B7 7E
 (084.898211)  can0  RX - -  109   [8]  0E 16 5E 0A B8 97 EF 24
 (084.898323)  can0  RX - -  109   [6]  81 EF 4A DF 65 7E
 (084.908470)  can0  RX - -  109   [8]  0E 16 5E 0B B8 9F 98 64
 (084.908603)  can0  RX - -  109   [6]  81 CA 08 70 87 7E
 (085.118735)  can0  RX - -  109   [8]  0E 16 55 81 4D 81 E7 5B
 (085.118842)  can0  RX - -  109   [6]  83 B2 5C 36 82 7E
 (085.197699)  can0  RX - -  109   [8]  0E 16 5E 0A B9 F3 CC 24
 (085.197818)  can0  RX - -  109   [6]  81 EF 45 52 07 7E
 (085.207944)  can0  RX - -  109   [8]  0E 16 5E 0B B9 FA F5 64
 (085.208065)  can0  RX - -  109   [6]  81 C9 18 9B 4A 7E
 (085.498197)  can0  RX - -  109   [8]  0E 16 5E 0A BB CF A9 24
 (085.498314)  can0  RX - -  109   [6]  81 EF 3F C8 A2 7E
 (085.508454)  can0  RX - -  109   [8]  0E 16 5E 0B BB D6 D2 64
 (085.508570)  can0  RX - -  109   [6]  81 C8 2B 52 E8 7E
 (085.797455)  can0  RX - -  109   [8]  0E 16 5E 0A BD AB 86 24
 (085.797565)  can0  RX - -  109   [6]  81 EF 49 1B AE 7E
 (085.807698)  can0  RX - -  109   [8]  0E 16 5E 0B BD B2 AF 64
 (085.807811)  can0  RX - -  109   [6]  81 C7 3F 21 D2 7E
 (085.834194)  can0  TX - -  108   [6]  06 16 05 79 06 7E
 (085.834320)  can0  RX - -  109   [8]  0A 17 57 BB EF B9 43 FE
 (085.834444)  can0  RX - -  109   [7]  01 7E 05 17 EA 3E 7E
 (086.098322)  can0  RX - -  109   [8]  0E 17 5E 0A BF 86 E3 24
 (086.098450)  can0  RX - -  109   [6]  81 EF 42 89 B9 7E
 (086.107314)  can0  RX - -  109   [8]  0E 17 5E 0B BF 8E 8C 64
 (086.107443)  can0  RX - -  109   [6]  81 C6 53 01 85 7E
 (086.397583)  can0  RX - -  109   [8]  0E 17 5E 0A C0 E2 C0 24
 (086.397764)  can0  RX - -  109   [6]  81 EF 3D E0 31 7E
 (086.407824)  can0  RX - -  109   [8]  0E 17 5E 0B C0 E9 E9 64
 (086.407945)  can0  RX - -  109   [6]  81 C5 61 2D 43 7E
 (086.698074)  can0  RX - -  109   [8]  0E 17 5E 0A C2 BE 9D 24
 (086.698182)  can0  RX - -  109   [6]  81 EF 41 16 E2 7E
 (086.708324)  can0  RX - -  109   [8]  0E 17 5E 0B C2 C5 C6 64
 (086.708439)  can0  RX - -  109   [6]  81 C4 72 9F C3 7E
 (086.818562)  can0  TX - -  108   [6]  06 17 05 60 DE 7E
 (086.818691)  can0  RX - -  109   [8]  0A 18 57 C1 C0 B5 24 B2
 (086.818812)  can0  RX - -  109   [7]  86 7E 05 18 12 C9 7E
 (086.997696)  can0  RX - -  109   [8]  0E 18 5E 0A C4 99 FA 24
 (086.997817)  can0  RX - -  109   [6]  81 EF 3F 71 D4 7E
 (087.007945)  can0  RX - -  109   [8]  0E 18 5E 0B C4 A1 A3 64
 (087.008063)  can0  RX - -  109   [6]  81 C4 05 7D 10 7E
 (087.298191)  can0  RX - -  109   [8]  0E 18 5E 0A C5 F5 D7 24
 (087.298317)  can0  RX - -  109   [6]  81 EF 48 43 99 7E
 (087.307189)  can0  RX - -  109   [8]  0E 18 5E 0B C5 FD 80 64
 (087.307317)  can0  RX - -  109   [6]  81 C3 16 81 1F 7E
 (087.597446)  can0  RX - -  109   [8]  0E 18 5E 0A C7 D1 B4 24
 (087.597565)  can0  RX - -  109   [6]  81 EF 41 C0 50 7E
 (087.607692)  can0  RX - -  109   [8]  0E 18 5E 0B C7 D8 DD 64
 (087.607812)  can0  RX - -  109   [6]  81 C2 20 63 38 7E
 (087.660433)  can0  TX - -  108   [8]  0F 18 0F 0C B0 C7 DE CC
 (087.660563)  can0  TX - -  108   [7]  1A C9 9F 00 C4 18 7E
 (087.660684)  can0  RX - -  109   [5]  05 19 03 40 7E
 (087.803311)  can0  TX - -  108   [6]  06 19 05 FA CE 7E
 (087.803438)  can0  RX - -  109   [8]  0A 1A 57 C7 91 CE 66 5D
 (087.803556)  can0  RX - -  109   [7]  0F 7E 05 1A 31 DB 7E
 (087.897474)  can0  RX - -  109   [8]  0E 1A 5E 0A C9 AD 91 24
 (087.897609)  can0  RX - -  109   [6]  81 EF 42 9E 94 7E
 (087.907703)  can0  RX - -  109   [8]  0E 1A 5E 0B C9 B4 BA 64
 (087.907829)  can0  RX - -  109   [6]  81 C1 31 B1 1D 7E
 (088.197954)  can0  RX - -  109   [8]  0E 1A 5E 0A CB 88 EE 24
 (088.198070)  can0  RX - -  109   [6]  81 EF 40 64 D5 7E
 (088.208187)  can0  RX - -  109   [8]  0E 1A 5E 0B CB 90 97 64
 (088.208308)  can0  RX - -  109   [6]  81 C0 43 46 C2 7E
 (088.497191)  can0  RX - -  109   [8]  0E 1A 5E 0A CC E4 CB 24
 (088.497315)  can0  RX - -  109   [6]  81 EF 43 61 D6 7E
 (088.507436)  can0  RX - -  109   [8]  0E 1A 5E 0B CC EB F4 64
 (088.507557)  can0  RX - -  109   [6]  81 BF 4A 3B 4C 7E
 (088.787690)  can0  TX - -  108   [6]  06 1A 05 D0 A6 7E
 (088.787814)  can0  RX - -  109   [8]  0A 1B 57 CC E2 DA 3C F9
 (088.787942)  can0  RX - -  109   [7]  A3 7E 05 1B 20 52 7E
 (088.798058)  can0  RX - -  109   [8]  0E 1B 5E 0A CE C0 A8 24
 (088.798182)  can0  RX - -  109   [6]  81 EF 47 15 DD 7E
 (088.808318)  can0  RX - -  109   [8]  0E 1B 5E 0B CE C7 D1 64
 (088.808437)  can0  RX - -  109   [6]  81 BE 55 23 2F 7E
 (089.097317)  can0  RX - -  109   [8]  0E 1B 5E 0A D0 9C 85 24
 (089.097436)  can0  RX - -  109   [6]  81 EF 3D 97 98 7E
 (089.107556)  can0  RX - -  109   [8]  0E 1B 5E 0B D0 A3 AE 64
 (089.107680)  can0  RX - -  109   [6]  81 BD 5E 6C 6E 7E
 (089.397878)  can0  RX - -  109   [8]  0E 1B 5E 0A D1 F7 E2 24
 (089.398097)  can0  RX - -  109   [6]  81 EF 43 A9 4F 7E
 (089.408251)  can0  RX - -  109   [8]  0E 1B 5E 0B D1 FF 8B 64
 (089.408333)  can0  RX - -  109   [6]  81 BC 69 98 0F 7E
 (089.697230)  can0  RX - -  109   [8]  0E 1B 5E 0A D3 D3 BF 24
 (089.697387)  can0  RX - -  109   [6]  81 EF 41 21 3C 7E
 (089.707480)  can0  RX - -  109   [8]  0E 1B 5E 0B D3 DA E8 64
 (089.707595)  can0  RX - -  109   [6]  81 BB 7C 88 08 7E
 (089.772682)  can0  TX - -  108   [6]  06 1B 05 C9 7E 7E
 (089.772816)  can0  RX - -  109   [8]  0A 1C 57 D2 B4 91 05 D3
 (089.772942)  can0  RX - -  109   [7]  27 7E 05 1C 54 ED 7E
 (089.998068)  can0  RX - -  109   [8]  0E 1C 5E 0A D5 AF 9C 24
 (089.998190)  can0  RX - -  109   [6]  81 EF 46 40 13 7E
 (090.008312)  can0  RX - -  109   [8]  0E 1C 5E 0B D5 B6 C5 64
 (090.008432)  can0  RX - -  109   [6]  81 BB 03 35 E0 7E
 (090.218560)  can0  RX - -  109   [8]  0E 1C 55 81 56 81 EF 64
 (090.218680)  can0  RX - -  109   [6]  83 CB 19 52 F0 7E
 (090.297565)  can0  RX - -  109   [8]  0E 1C 5E 0A D7 8A F9 24
 (090.297687)  can0  RX - -  109   [6]  81 EF 3F 8F EE 7E
 (090.307803)  can0  RX - -  109   [8]  0E 1C 5E 0B D7 92 A2 64
 (090.307928)  can0  RX - -  109   [6]  81 BA 0E C4 C5 7E
 (090.598066)  can0  RX - -  109   [8]  0E 1C 5E 0A D8 E6 D6 24
 (090.598185)  can0  RX - -  109   [6]  81 EF 42 82 50 7E
 (090.607052)  can0  RX - -  109   [8]  0E 1C 5E 0B D8 ED FF 64
 (090.607175)  can0  RX - -  109   [6]  81 B9 1B 41 EB 7E
 (090.757303)  can0  TX - -  108   [6]  06 1C 05 84 76 7E
 (090.757431)  can0  RX - -  109   [8]  0A 1D 57 D8 85 AE 7C 0C
 (090.757550)  can0  RX - -  109   [7]  FC 7E 05 1D 45 64 7E
 (090.897724)  can0  RX - -  109   [8]  0E 1D 5E 0A DA C2 B3 24
 (090.897835)  can0  RX - -  109   [6]  81 EF 42 8B E7 7E
 (090.907963)  can0  RX - -  109   [8]  0E 1D 5E 0B DA C9 DC 64
 (090.908083)  can0  RX - -  109   [6]  81 B8 22 07 7C 7E
 (091.198190)  can0  RX - -  109   [8]  0E 1D 5E 0A DC 9E 90 24
 (091.198310)  can0  RX - -  109   [6]  81 EF 40 FC F0 7E
 (091.207185)  can0  RX - -  109   [8]  0E 1D 5E 0B DC A5 B9 64
 (091.207308)  can0  RX - -  109   [6]  81 B7 25 99 64 7E
 (091.497437)  can0  RX - -  109   [8]  0E 1D 5E 0A DD F9 ED 24
 (091.497560)  can0  RX - -  109   [6]  81 EF 41 80 4B 7E
 (091.507691)  can0  RX - -  109   [8]  0E 1D 5E 0B DE 81 96 64
 (091.507808)  can0  RX - -  109   [6]  81 B6 30 6F 8A 7E
 (091.741677)  can0  TX - -  108   [6]  06 1D 05 9D AE 7E
 (091.743048)  can0  RX - -  109   [8]  0A 1E 57 DD D6 CE 64 FB
 (091.743172)  can0  RX - -  109   [7]  CD 7E 05 1E 77 FF 7E
 (091.797069)  can0  RX - -  109   [8]  0E 1E 5E 0A DF D5 CA 24
 (091.797184)  can0  RX - -  109   [6]  81 EF 43 04 52 7E
 (091.807311)  can0  RX - -  109   [8]  0E 1E 5E 0B DF DC F3 64
 (091.807431)  can0  RX - -  109   [6]  81 B5 3D 87 E2 7E
 (091.860051)  can0  TX - -  108   [8]  0F 1E 0F 0C B0 DF E2 E2
 (091.860180)  can0  TX - -  108   [7]  17 C9 9F 00 26 C8 7E
 (091.860298)  can0  RX - -  109   [5]  05 1F 66 76 7E
 (092.097935)  can0  RX - -  109   [8]  0F 1F 5E 0A 80 E1 B1 A7
 (092.098058)  can0  RX - -  109   [7]  24 81 EF 44 33 AE 7E
 (092.108179)  can0  RX - -  109   [8]  0F 1F 5E 0B 80 E1 B8 D0
 (092.108300)  can0  RX - -  109   [7]  64 81 B4 42 3A D1 7E
 (092.397202)  can0  RX - -  109   [8]  0F 1F 5E 0A 80 E3 8D 84
 (092.397331)  can0  RX - -  109   [7]  24 81 EF 43 FB D3 7E
 (092.407561)  can0  RX - -  109   [8]  0F 1F 5E 0B 80 E3 94 AD
 (092.407618)  can0  RX - -  109   [7]  64 81 B3 4A 11 39 7E
 (092.697687)  can0  RX - -  109   [8]  0F 1F 5E 0A 80 E4 E8 E1
 (092.697807)  can0  RX - -  109   [7]  24 81 EF 42 39 93 7E
 (092.707930)  can0  RX - -  109   [8]  0F 1F 5E 0B 80 E4 F0 8A
 (092.708049)  can0  RX - -  109   [7]  64 81 B2 52 94 60 7E
 (092.726925)  can0  TX - -  108   [6]  06 1F 05 AE 1E 7E
 (092.727052)  can0  RX - -  109   [8]  0B 10 57 80 E3 A7 EC 49
 (092.727176)  can0  RX - -  109   [8]  35 A5 7E 05 10 9E 81 7E
 (092.997308)  can0  RX - -  109   [8]  0F 10 5E 0A 80 E6 C4 BE
 (092.997432)  can0  RX - -  109   [7]  24 81 EF 39 74 3A 7E
 (093.007550)  can0  RX - -  109   [8]  0F 10 5E 0B 80 E6 CB E7
 (093.007674)  can0  RX - -  109   [7]  64 81 B1 59 1C 1E 7E
 (093.297807)  can0  RX - -  109   [8]  0F 10 5E 0A 80 E8 A0 9B
 (093.297930)  can0  RX - -  109   [7]  24 81 EF 41 DC 0C 7E
 (093.308047)  can0  RX - -  109   [8]  0F 10 5E 0B 80 E8 A7 C4
 (093.308173)  can0  RX - -  109   [7]  64 81 B0 60 E4 BD 7E
 (093.597060)  can0  RX - -  109   [8]  0F 10 5E 0A 80 E9 FB F8
 (093.597177)  can0  RX - -  109   [7]  24 81 EF 3F 08 1B 7E
 (093.607303)  can0  RX - -  109   [8]  0F 10 5E 0B 80 EA 83 A1
 (093.607422)  can0  RX - -  109   [7]  64 81 AF 64 91 50 7E
 (093.711297)  can0  TX - -  108   [6]  06 10 05 2D D6 7E
 (093.711430)  can0  RX - -  109   [8]  0B 11 57 80 E8 F8 DB 34
 (093.711544)  can0  RX - -  109   [8]  F0 89 7E 05 11 8F 08 7E
 (093.897937)  can0  RX - -  109   [8]  0F 11 5E 0A 80 EB D7 D5
 (093.898062)  can0  RX - -  109   [7]  24 81 EF 47 3D 8F 7E
 (093.908195)  can0  RX - -  109   [8]  0F 11 5E 0B 80 EB DE FE
