 (000.000000)  can0  RX - -  109   [8]  0F 14 5E 0B 81 F6 8B FE
 (000.000110)  can0  RX - -  109   [7]  4D 80 F3 10 17 37 7E
 (000.288990)  can0  RX - -  109   [8]  0F 14 5E 0A 81 F7 E0 B2
 (000.289115)  can0  RX - -  109   [7]  0D 81 E8 0B 4A 99 7E
 (000.299235)  can0  RX - -  109   [8]  0F 14 5E 0B 81 F7 E7 DB
 (000.299363)  can0  RX - -  109   [7]  4D 80 F2 23 62 A2 7E
 (000.351993)  can0  TX - -  108   [8]  0F 14 0F 0C C1 F7 ED C9
 (000.352118)  can0  TX - -  108   [7]  7A C9 9F 00 8D 76 7E
 (000.352236)  can0  RX - -  109   [5]  05 15 C9 2C 7E
 (000.397360)  can0  TX - -  108   [6]  06 15 05 53 6E 7E
 (000.397488)  can0  RX - -  109   [8]  0B 16 57 81 F6 D9 98 76
 (000.397607)  can0  RX - -  109   [8]  05 C9 7E 05 16 FB B7 7E
 (000.589018)  can0  RX - -  109   [8]  0F 16 5E 0A 81 F9 BC 8F
 (000.589122)  can0  RX - -  109   [7]  0D 81 E8 0F F8 8E 7E
 (000.599258)  can0  RX - -  109   [8]  0F 16 5E 0B 81 F9 C3 B8
 (000.599395)  can0  RX - -  109   [7]  4D 80 F1 3D B5 85 7E
 (000.889491)  can0  RX - -  109   [8]  0F 16 5E 0A 81 FB 97 EC
 (000.889617)  can0  RX - -  109   [7]  0D 81 E8 11 22 F0 7E
 (000.899729)  can0  RX - -  109   [8]  0F 16 5E 0B 81 FB 9F 95
 (000.899854)  can0  RX - -  109   [7]  4D 80 F0 4F A6 03 7E
 (001.190008)  can0  RX - -  109   [8]  0F 16 5E 0A 81 FC F3 C9
 (001.190132)  can0  RX - -  109   [7]  0D 81 E8 0A 9A 62 7E
 (001.198997)  can0  RX - -  109   [8]  0F 16 5E 0B 81 FC FA F2
 (001.199123)  can0  RX - -  109   [7]  4D 80 EF 68 20 A6 7E
 (001.383021)  can0  TX - -  108   [6]  06 16 05 79 06 7E
 (001.383153)  can0  RX - -  109   [8]  0B 17 57 81 FC AA CF 1F
 (001.383258)  can0  RX - -  109   [8]  49 36 7E 05 17 EA 3E 7E
 (001.489629)  can0  RX - -  109   [8]  0F 17 5E 0A 81 FE CF A6
 (001.489745)  can0  RX - -  109   [7]  0D 81 E8 0A C5 23 7E
 (001.499879)  can0  RX - -  109   [8]  0F 17 5E 0B 81 FE D6 CF
 (001.500007)  can0  RX - -  109   [7]  4D 80 EF 01 A0 7A 7E
 (001.705132)  can0  RX - -  109   [8]  0E 17 55 81 56 81 FB 0D
 (001.705272)  can0  RX - -  109   [6]  83 FB 4F 37 76 7E
 (001.789141)  can0  RX - -  109   [8]  0F 17 5E 0A 82 80 AB 83
 (001.789272)  can0  RX - -  109   [7]  0D 81 E8 0B 18 CF 7E
 (001.799388)  can0  RX - -  109   [8]  0F 17 5E 0B 82 80 B2 AC
 (001.799562)  can0  RX - -  109   [7]  4D 80 EE 17 FA CA 7E
 (002.089635)  can0  RX - -  109   [8]  0F 17 5E 0A 82 82 86 E0
 (002.089790)  can0  RX - -  109   [7]  0D 81 E8 0A 32 3D 7E
 (002.099871)  can0  RX - -  109   [8]  0F 17 5E 0B 82 82 8E 89
 (002.099995)  can0  RX - -  109   [7]  4D 80 ED 2F EA 33 7E
 (002.366538)  can0  TX - -  108   [6]  06 17 05 60 DE 7E
 (002.367721)  can0  RX - -  109   [8]  0B 18 57 82 81 FB DA 12
 (002.367845)  can0  RX - -  109   [8]  75 37 7E 05 18 12 C9 7E
 (002.389222)  can0  RX - -  109   [8]  0F 18 5E 0A 82 83 E2 BD
 (002.389349)  can0  RX - -  109   [7]  0D 81 E8 09 1D 34 7E
 (002.399479)  can0  RX - -  109   [8]  0F 18 5E 0B 82 83 E9 E6
 (002.399596)  can0  RX - -  109   [7]  4D 80 EC 4B 05 7F 7E
 (002.689724)  can0  RX - -  109   [8]  0F 18 5E 0A 82 85 BE 9A
 (002.689844)  can0  RX - -  109   [7]  0D 81 E8 0C 33 8C 7E
 (002.699967)  can0  RX - -  109   [8]  0F 18 5E 0B 82 85 C5 C3
 (002.700091)  can0  RX - -  109   [7]  4D 80 EB 62 5E 28 7E
 (002.988975)  can0  RX - -  109   [8]  0F 18 5E 0A 82 87 99 F7
 (002.989098)  can0  RX - -  109   [7]  0D 81 E8 10 9A AC 7E
 (002.999215)  can0  RX - -  109   [8]  0F 18 5E 0B 82 87 A1 A0
 (002.999338)  can0  RX - -  109   [7]  4D 80 EA 7F 90 4D 7E
 (003.289473)  can0  RX - -  109   [8]  0F 18 5E 0A 82 88 F5 D4
 (003.289590)  can0  RX - -  109   [7]  0D 81 E8 08 D4 89 7E
 (003.299715)  can0  RX - -  109   [8]  0F 18 5E 0B 82 88 FC FD
 (003.299835)  can0  RX - -  109   [7]  4D 80 EA 19 F3 21 7E
 (003.351221)  can0  TX - -  108   [6]  06 18 05 E3 16 7E
 (003.351345)  can0  RX - -  109   [8]  0B 19 57 82 87 CC AE 3C
 (003.351479)  can0  RX - -  109   [8]  F4 0B 7E 05 19 03 40 7E
 (003.589108)  can0  RX - -  109   [8]  0F 19 5E 0A 82 8A D1 B1
 (003.589248)  can0  RX - -  109   [7]  0D 81 E8 11 29 C8 7E
 (003.599369)  can0  RX - -  109   [8]  0F 19 5E 0B 82 8A D8 DA
 (003.599498)  can0  RX - -  109   [7]  4D 80 E9 35 95 8C 7E
 (003.889595)  can0  RX - -  109   [8]  0F 19 5E 0A 82 8C AD 8E
 (003.889709)  can0  RX - -  109   [7]  0D 81 E8 0B 84 06 7E
 (003.899836)  can0  RX - -  109   [8]  0F 19 5E 0B 82 8C B4 B7
 (003.899955)  can0  RX - -  109   [7]  4D 80 E8 51 9A 39 7E
 (004.188837)  can0  RX - -  109   [8]  0F 19 5E 0A 82 8E 88 EB
 (004.188961)  can0  RX - -  109   [7]  0D 81 E8 0E F2 10 7E
 (004.199082)  can0  RX - -  109   [8]  0F 19 5E 0B 82 8E 90 94
 (004.199200)  can0  RX - -  109   [7]  4D 80 E7 69 7B 10 7E
 (004.335585)  can0  TX - -  108   [6]  06 19 05 FA CE 7E
 (004.335710)  can0  RX - -  109   [8]  0B 1A 57 82 8D 9D D7 05
 (004.335826)  can0  RX - -  109   [8]  D2 6A 7E 05 1A 31 DB 7E
 (004.489705)  can0  RX - -  109   [8]  0F 1A 5E 0A 82 8F E4 C8
 (004.489826)  can0  RX - -  109   [7]  0D 81 E8 06 D4 26 7E
 (004.499961)  can0  RX - -  109   [8]  0F 1A 5E 0B 82 8F EB F1
 (004.500080)  can0  RX - -  109   [7]  4D 80 E7 06 EE 44 7E
 (004.551452)  can0  TX - -  108   [8]  0F 1A 0F 0C C2 8F F1 E0
 (004.551576)  can0  TX - -  108   [7]  03 C9 9F 00 60 4C 7E
 (004.551702)  can0  RX - -  109   [5]  05 1B 20 52 7E
 (004.789335)  can0  RX - -  109   [8]  0F 1B 5E 0A 82 91 C0 A5
 (004.789452)  can0  RX - -  109   [7]  0D 81 E8 08 13 2A 7E
 (004.799578)  can0  RX - -  109   [8]  0F 1B 5E 0B 82 91 C7 CE
 (004.799706)  can0  RX - -  109   [7]  4D 80 E6 22 FC 7A 7E
 (005.089836)  can0  RX - -  109   [8]  0F 1B 5E 0A 82 93 9C 82
 (005.089960)  can0  RX - -  109   [7]  0D 81 E8 07 FD BE 7E
 (005.098854)  can0  RX - -  109   [8]  0F 1B 5E 0B 82 93 A3 AB
 (005.099015)  can0  RX - -  109   [7]  4D 80 E5 44 F7 63 7E
 (005.320321)  can0  TX - -  108   [6]  06 1B 05 C9 7E 7E
 (005.320453)  can0  RX - -  109   [8]  0B 1C 57 82 92 EF 82 71
 (005.320573)  can0  RX - -  109   [8]  56 73 7E 05 1C 54 ED 7E
 (005.389459)  can0  RX - -  109   [8]  0F 1C 5E 0A 82 94 F7 DF
 (005.389578)  can0  RX - -  109   [7]  0D 81 E8 08 C1 35 7E
 (005.399698)  can0  RX - -  109   [8]  0F 1C 5E 0B 82 94 FF 88
 (005.399822)  can0  RX - -  109   [7]  4D 80 E4 62 C1 B9 7E
 (005.688699)  can0  RX - -  109   [8]  0F 1C 5E 0A 82 96 D3 BC
 (005.688817)  can0  RX - -  109   [7]  0D 81 E8 0E BA 0B 7E
 (005.698947)  can0  RX - -  109   [8]  0F 1C 5E 0B 82 96 DA E5
 (005.699065)  can0  RX - -  109   [7]  4D 80 E4 03 C8 AD 7E
 (005.989200)  can0  RX - -  109   [8]  0F 1C 5E 0A 82 98 AF 99
 (005.989314)  can0  RX - -  109   [7]  0D 81 E8 0C AD 08 7E
 (005.999448)  can0  RX - -  109   [8]  0F 1C 5E 0B 82 98 B6 C2
 (005.999570)  can0  RX - -  109   [7]  4D 80 E3 21 E7 9C 7E
 (006.289699)  can0  RX - -  109   [8]  0F 1C 5E 0A 82 9A 8A F6
 (006.289817)  can0  RX - -  109   [7]  0D 81 E8 09 97 B6 7E
 (006.298690)  can0  RX - -  109   [8]  0F 1C 5E 0B 82 9A 92 9F
 (006.298814)  can0  RX - -  109   [7]  4D 80 E2 45 70 07 7E
 (006.305191)  can0  TX - -  108   [6]  06 1C 05 84 76 7E
 (006.305318)  can0  RX - -  109   [8]  0B 1D 57 82 98 C0 B1 0A
 (006.305440)  can0  RX - -  109   [8]  0D 6A 7E 05 1D 45 64 7E
 (006.589324)  can0  RX - -  109   [8]  0F 1D 5E 0A 82 9B E6 D3
 (006.589440)  can0  RX - -  109   [7]  0D 81 E8 09 AD 72 7E
 (006.599599)  can0  RX - -  109   [8]  0F 1D 5E 0B 82 9B ED FC
 (006.599756)  can0  RX - -  109   [7]  4D 80 E1 60 A2 73 7E
 (006.804826)  can0  RX - -  109   [8]  0E 1D 55 81 56 81 FA 56
 (006.804945)  can0  RX - -  109   [6]  83 FC 53 8F B3 7E
 (006.888885)  can0  RX - -  109   [8]  0F 1D 5E 0A 82 9D C2 B0
 (006.888964)  can0  RX - -  109   [7]  0D 81 E8 07 35 72 7E
 (006.899117)  can0  RX - -  109   [8]  0F 1D 5E 0B 82 9D C9 D9
 (006.899230)  can0  RX - -  109   [7]  4D 80 E1 09 D7 70 7E
 (007.189348)  can0  RX - -  109   [8]  0F 1D 5E 0A 82 9F 9E 8D
 (007.189452)  can0  RX - -  109   [7]  0D 81 E8 09 32 87 7E
 (007.199586)  can0  RX - -  109   [8]  0F 1D 5E 0B 82 9F A5 B6
 (007.199707)  can0  RX - -  109   [7]  4D 80 E0 28 B4 92 7E
 (007.289836)  can0  TX - -  108   [6]  06 1D 05 9D AE 7E
 (007.289963)  can0  RX - -  109   [8]  0B 1E 57 82 9E 91 D7 3D
 (007.290090)  can0  RX - -  109   [8]  43 18 7E 05 1E 77 FF 7E
 (007.488957)  can0  RX - -  109   [8]  0F 1E 5E 0A 82 A0 F9 EA
 (007.489086)  can0  RX - -  109   [7]  0D 81 E8 05 C3 E9 7E
 (007.499212)  can0  RX - -  109   [8]  0E 1E 5E 0B 82 A1 81 93
 (007.499340)  can0  RX - -  109   [6]  4D DF 78 2A 78 7E
 (007.789478)  can0  RX - -  109   [8]  0F 1E 5E 0A 82 A2 D5 C7
 (007.789734)  can0  RX - -  109   [7]  0D 81 E8 06 6E B8 7E
 (007.799723)  can0  RX - -  109   [8]  0E 1E 5E 0B 82 A2 DC F0
 (007.799829)  can0  RX - -  109   [6]  4D DF 39 C0 B7 7E
 (008.088686)  can0  RX - -  109   [8]  0F 1E 5E 0A 82 A4 B1 A4
 (008.088801)  can0  RX - -  109   [7]  0D 81 E8 07 0C 9E 7E
 (008.098927)  can0  RX - -  109   [8]  0E 1E 5E 0B 82 A4 B8 CD
 (008.099050)  can0  RX - -  109   [6]  4D DE 5E 9D F2 7E
 (008.274176)  can0  TX - -  108   [6]  06 1E 05 B7 C6 7E
 (008.274300)  can0  RX - -  109   [8]  0B 1F 57 82 A3 E2 C4 29
 (008.274435)  can0  RX - -  109   [8]  9D 50 7E 05 1F 66 76 7E
 (008.389560)  can0  RX - -  109   [8]  0F 1F 5E 0A 82 A6 8D 81
 (008.389673)  can0  RX - -  109   [7]  0D 81 E8 08 26 A2 7E
 (008.399801)  can0  RX - -  109   [8]  0E 1F 5E 0B 82 A6 94 AA
 (008.399936)  can0  RX - -  109   [6]  4D DE 05 8C B1 7E
 (008.688929)  can0  RX - -  109   [8]  0F 1F 5E 0A 82 A7 E8 DE
 (008.689053)  can0  RX - -  109   [7]  0D 81 E8 0A 16 CD 7E
 (008.699175)  can0  RX - -  109   [8]  0E 1F 5E 0B 82 A7 F0 87
 (008.699301)  can0  RX - -  109   [6]  4D DD 27 28 9D 7E
 (008.751979)  can0  TX - -  108   [8]  0F 1F 0F 0C C2 A7 F5 F5
 (008.752059)  can0  TX - -  108   [7]  7D C9 9F 00 A0 58 7E
 (008.752187)  can0  RX - -  109   [5]  05 10 9E 81 7E
 (008.989809)  can0  RX - -  109   [8]  0F 10 5E 0A 82 A9 C4 BB
 (008.989933)  can0  RX - -  109   [7]  0D 81 E8 04 56 AD 7E
 (008.998800)  can0  RX - -  109   [8]  0E 10 5E 0B 82 A9 CB E4
 (008.998922)  can0  RX - -  109   [6]  4D DC 4F 65 61 7E
 (009.259042)  can0  TX - -  108   [6]  06 10 05 2D D6 7E
 (009.259167)  can0  RX - -  109   [8]  0B 11 57 82 A9 B3 DA 7B
 (009.259297)  can0  RX - -  109   [8]  60 F6 7E 05 11 8F 08 7E
 (009.289420)  can0  RX - -  109   [8]  0F 11 5E 0A 82 AB A0 98
 (009.289540)  can0  RX - -  109   [7]  0D 81 E7 7B D6 7F 7E
 (009.299666)  can0  RX - -  109   [8]  0E 11 5E 0B 82 AB A7 C1
 (009.299789)  can0  RX - -  109   [6]  4D DB 78 7E A3 7E
 (009.588685)  can0  RX - -  109   [8]  0F 11 5E 0A 82 AC FB F5
 (009.588793)  can0  RX - -  109   [7]  0D 81 E8 05 B8 D5 7E
 (009.598921)  can0  RX - -  109   [8]  0E 11 5E 0B 82 AD 83 9E
 (009.599041)  can0  RX - -  109   [6]  4D DB 1F 5B 8E 7E
 (009.889175)  can0  RX - -  109   [8]  0F 11 5E 0A 82 AE D7 D2
 (009.889295)  can0  RX - -  109   [7]  0D 81 E8 00 3C 1A 7E
 (009.899418)  can0  RX - -  109   [8]  0E 11 5E 0B 82 AE DE FB
 (009.899537)  can0  RX - -  109   [6]  4D DA 4A B5 A6 7E
 (010.189671)  can0  RX - -  109   [8]  0F 11 5E 0A 82 B0 B3 AF
 (010.189793)  can0  RX - -  109   [7]  0D 81 E8 06 94 5E 7E
 (010.198673)  can0  RX - -  109   [8]  0E 11 5E 0B 82 B0 BA D8
 (010.198786)  can0  RX - -  109   [6]  4D D9 70 5C 38 7E
 (010.243910)  can0  TX - -  108   [6]  06 11 05 34 0E 7E
 (010.244037)  can0  RX - -  109   [8]  0B 12 57 82 AF 85 98 2E
 (010.244161)  can0  RX - -  109   [8]  A3 8B 7E 05 12 BD 93 7E
 (010.489297)  can0  RX - -  109   [8]  0F 12 5E 0A 82 B2 8F 8C
 (010.489420)  can0  RX - -  109   [7]  0D 81 E8 0B 0D CA 7E
 (010.499533)  can0  RX - -  109   [8]  0E 12 5E 0B 82 B2 96 B5
 (010.499658)  can0  RX - -  109   [6]  4D D9 19 DB 0A 7E
 (010.788556)  can0  RX - -  109   [8]  0F 12 5E 0A 82 B3 EA E9
 (010.788706)  can0  RX - -  109   [7]  0D 81 E8 02 1B 0F 7E
 (010.798783)  can0  RX - -  109   [8]  0E 12 5E 0B 82 B3 F2 92
 (010.798912)  can0  RX - -  109   [6]  4D D8 47 29 D3 7E
 (011.089044)  can0  RX - -  109   [8]  0F 12 5E 0A 82 B5 C6 C6
 (011.089161)  can0  RX - -  109   [7]  0D 81 E8 0B 60 FA 7E
 (011.099281)  can0  RX - -  109   [8]  0E 12 5E 0B 82 B5 CD EF
 (011.099402)  can0  RX - -  109   [6]  4D D7 6E 61 C5 7E
 (011.228277)  can0  TX - -  108   [6]  06 12 05 1E 66 7E
 (011.228405)  can0  RX - -  109   [8]  0B 13 57 82 B4 D6 B9 1F
 (011.228526)  can0  RX - -  109   [8]  49 8C 7E 05 13 AC 1A 7E
 (011.388683)  can0  RX - -  109   [8]  0F 13 5E 0A 82 B7 A2 A3
 (011.388789)  can0  RX - -  109   [7]  0D 81 E8 07 D8 46 7E
 (011.398910)  can0  RX - -  109   [8]  0E 13 5E 0B 82 B7 A9 CC
 (011.399033)  can0  RX - -  109   [6]  4D D7 1C 33 1C 7E
 (011.689160)  can0  RX - -  109   [8]  0F 13 5E 0A 82 B8 FE 80
 (011.689279)  can0  RX - -  109   [7]  0D 81 E8 0B 07 16 7E
 (011.699405)  can0  RX - -  109   [8]  0E 13 5E 0B 82 B9 85 A9
 (011.699521)  can0  RX - -  109   [6]  4D D6 49 F6 5C 7E
 (011.904663)  can0  RX - -  109   [8]  0E 13 55 81 56 81 F2 7D
 (011.904775)  can0  RX - -  109   [6]  83 DA 61 7E 5C 7E
 (011.988656)  can0  RX - -  109   [8]  0F 13 5E 0A 82 BA D9 DD
 (011.988771)  can0  RX - -  109   [7]  0D 81 E8 04 58 FD 7E
 (011.998899)  can0  RX - -  109   [8]  0E 13 5E 0B 82 BA E1 86
 (011.999021)  can0  RX - -  109   [6]  4D D5 74 8B 26 7E
 (012.214146)  can0  TX - -  108   [6]  06 13 05 07 BE 7E
 (012.214277)  can0  RX - -  109   [8]  0B 14 57 82 BA A7 F6 3C
 (012.214403)  can0  RX - -  109   [8]  2C E5 7E 05 14 D8 A5 7E
 (012.289527)  can0  RX - -  109   [8]  0F 14 5E 0A 82 BC B5 BA
 (012.289642)  can0  RX - -  109   [7]  0D 81 E8 02 E2 CA 7E
 (012.298522)  can0  RX - -  109   [8]  0E 14 5E 0B 82 BC BC E3
 (012.298642)  can0  RX - -  109   [6]  4D D5 21 AC A4 7E
 (012.588782)  can0  RX - -  109   [8]  0F 14 5E 0A 82 BE 91 97
 (012.588900)  can0  RX - -  109   [7]  0D 81 E8 03 4D D1 7E
 (012.599026)  can0  RX - -  109   [8]  0E 14 5E 0B 82 BE 98 C0
 (012.599141)  can0  RX - -  109   [6]  4D D4 52 1B 29 7E
 (012.889331)  can0  RX - -  109   [8]  0F 14 5E 0A 82 BF EC F4
 (012.889435)  can0  RX - -  109   [7]  0D 81 E8 06 C9 08 7E
 (012.899585)  can0  RX - -  109   [8]  0E 14 5E 0B 82 BF F4 9D
 (012.899659)  can0  RX - -  109   [6]  4D D4 01 F7 06 7E
 (012.951031)  can0  TX - -  108   [8]  0F 14 0F 0C C2 BF FA 8B
 (012.951156)  can0  TX - -  108   [7]  7B C9 9F 00 8B 3C 7E
 (012.951286)  can0  RX - -  109   [5]  05 15 C9 2C 7E
 (013.188912)  can0  RX - -  109   [8]  0F 15 5E 0A 82 C1 C8 D1
 (013.189084)  can0  RX - -  109   [7]  0D 81 E8 05 EA 66 7E
 (013.199154)  can0  TX - -  108   [6]  06 15 05 53 6E 7E
 (013.199285)  can0  RX - -  109   [8]  0E 15 5E 0B 82 C1 CF FA
 (013.199395)  can0  RX - -  109   [6]  4D D3 2B B9 2A 7E
 (013.199535)  can0  RX - -  109   [8]  0B 16 57 82 BF F9 BC 5F
 (013.199664)  can0  RX - -  109   [8]  0C 7A 7E 05 16 FB B7 7E
 (013.488542)  can0  RX - -  109   [8]  0F 16 5E 0A 82 C3 A4 AE
 (013.488764)  can0  RX - -  109   [7]  0D 81 E8 03 8F 12 7E
 (013.498778)  can0  RX - -  109   [8]  0E 16 5E 0B 82 C3 AB D7
 (013.498908)  can0  RX - -  109   [6]  4D D2 5E 70 98 7E
 (013.789089)  can0  RX - -  109   [8]  0F 16 5E 0A 82 C5 80 8B
 (013.789157)  can0  RX - -  109   [7]  0D 81 E8 04 70 69 7E
 (013.799294)  can0  RX - -  109   [8]  0E 16 5E 0B 82 C5 87 B4
 (013.799406)  can0  RX - -  109   [6]  4D D2 0F 80 E6 7E
 (014.089520)  can0  RX - -  109   [8]  0F 16 5E 0A 82 C6 DB E8
 (014.089641)  can0  RX - -  109   [7]  0D 81 E8 04 09 3C 7E
 (014.098512)  can0  RX - -  109   [8]  0E 16 5E 0B 82 C6 E3 91
 (014.098631)  can0  RX - -  109   [6]  4D D1 44 37 83 7E
 (014.183756)  can0  TX - -  108   [6]  06 16 05 79 06 7E
 (014.183888)  can0  RX - -  109   [8]  0B 17 57 82 C5 CA CB 29
 (014.184005)  can0  RX - -  109   [8]  D7 F3 7E 05 17 EA 3E 7E
 (014.389158)  can0  RX - -  109   [8]  0F 17 5E 0A 82 C8 B7 C5
 (014.389265)  can0  RX - -  109   [7]  0D 81 E7 7C 0C 2B 7E
 (014.399414)  can0  RX - -  109   [8]  0E 17 5E 0B 82 C8 BE EE
 (014.399548)  can0  RX - -  109   [6]  4D D0 73 9F 48 7E
 (014.689635)  can0  RX - -  109   [8]  0F 17 5E 0A 82 CA 93 A2
 (014.689757)  can0  RX - -  109   [7]  0D 81 E8 09 98 D1 7E
 (014.698630)  can0  RX - -  109   [8]  0E 17 5E 0B 82 CA 9A CB
 (014.698757)  can0  RX - -  109   [6]  4D D0 25 0C 28 7E
 (014.988884)  can0  RX - -  109   [8]  0F 17 5E 0A 82 CB EE FF
 (014.989003)  can0  RX - -  109   [7]  0D 81 E7 7C 59 2E 7E
 (014.999129)  can0  RX - -  109   [8]  0E 17 5E 0B 82 CB F6 A8
 (014.999250)  can0  RX - -  109   [6]  4D CF 5B EE 09 7E
 (015.168125)  can0  TX - -  108   [6]  06 17 05 60 DE 7E
 (015.168250)  can0  RX - -  109   [8]  0B 18 57 82 CB 9B F5 21
 (015.168371)  can0  RX - -  109   [8]  19 80 7E 05 18 12 C9 7E
 (015.288504)  can0  RX - -  109   [8]  0F 18 5E 0A 82 CD CA DC
 (015.288648)  can0  RX - -  109   [7]  0D 81 E8 06 AA 2B 7E
 (015.298756)  can0  RX - -  109   [8]  0E 18 5E 0B 82 CD D2 85
 (015.298879)  can0  RX - -  109   [6]  4D CF 12 CD B7 7E
 (015.589010)  can0  RX - -  109   [8]  0F 18 5E 0A 82 CF A6 B9
 (015.589126)  can0  RX - -  109   [7]  0D 81 E8 07 BD BB 7E
 (015.599251)  can0  RX - -  109   [8]  0E 18 5E 0B 82 CF AD E2
 (015.599371)  can0  RX - -  109   [6]  4D CE 46 79 52 7E
 (015.889527)  can0  RX - -  109   [8]  0F 18 5E 0A 82 D1 82 96
 (015.889657)  can0  RX - -  109   [7]  0D 81 E8 07 11 F2 7E
 (015.898522)  can0  RX - -  109   [8]  0E 18 5E 0B 82 D1 89 BF
 (015.898667)  can0  RX - -  109   [6]  4D CD 7A C0 DF 7E
 (016.152503)  can0  TX - -  108   [6]  06 18 05 E3 16 7E
 (016.152637)  can0  RX - -  109   [8]  0B 19 57 82 D0 ED 8C 6C
 (016.152754)  can0  RX - -  109   [8]  6D DD 7E 05 19 03 40 7E
 (016.189130)  can0  RX - -  109   [8]  0F 19 5E 0A 82 D2 DD F3
 (016.189241)  can0  RX - -  109   [7]  0D 81 E7 7C 58 9E 7E
 (016.199370)  can0  RX - -  109   [8]  0E 19 5E 0B 82 D2 E5 9C
 (016.199495)  can0  RX - -  109   [6]  4D CD 2E 88 39 7E
 (016.488372)  can0  RX - -  109   [8]  0F 19 5E 0A 82 D4 B9 D0
 (016.488496)  can0  RX - -  109   [7]  0D 81 E8 09 4D F1 7E
 (016.498621)  can0  RX - -  109   [8]  0E 19 5E 0B 82 D4 C0 F9
 (016.498735)  can0  RX - -  109   [6]  4D CC 65 C4 BA 7E
 (016.788878)  can0  RX - -  109   [8]  0F 19 5E 0A 82 D6 95 AD
 (016.788991)  can0  RX - -  109   [7]  0D 81 E8 01 2B 11 7E
 (016.799125)  can0  RX - -  109   [8]  0E 19 5E 0B 82 D6 9C D6
 (016.799246)  can0  RX - -  109   [6]  4D CC 1C 1D 52 7E
 (017.005628)  can0  RX - -  109   [8]  0E 19 55 81 56 81 F8 7F
 (017.005742)  can0  RX - -  109   [6]  83 EC 5A 57 C7 7E
 (017.088372)  can0  RX - -  109   [8]  0F 19 5E 0A 82 D7 F1 8A
 (017.088490)  can0  RX - -  109   [7]  0D 81 E8 09 FF DC 7E
 (017.098612)  can0  RX - -  109   [8]  0E 19 5E 0B 82 D7 F8 B3
 (017.098732)  can0  RX - -  109   [6]  4D CB 53 95 92 7E
 (017.136399)  can0  TX - -  108   [8]  10 19 05 0F 0C C2 D7 FE
 (017.136503)  can0  TX - -  108   [8]  A1 79 C9 9F 00 37 92 7E
 (017.137880)  can0  RX - -  109   [8]  0B 1A 57 82 D6 BD FE 0F
 (017.138005)  can0  RX - -  109   [8]  9F 23 7E 05 1A 31 DB 7E
 (017.389401)  can0  RX - -  109   [8]  0F 1A 5E 0A 82 D9 CC E7
 (017.389502)  can0  RX - -  109   [7]  0D 81 E8 05 62 EA 7E
 (017.398397)  can0  RX - -  109   [8]  0E 1A 5E 0B 82 D9 D4 90
 (017.398501)  can0  RX - -  109   [6]  4D CB 10 15 F9 7E
